name   ...
have 1 nodes. model: 0 sckt: 0 adp 0

n1       n1 matrix_number 1, user_number 1 nm[t]  vdc  0.
-c1
#Time       v(n1)      v(n2)      v(n3)      v(nv)     
 0.         0.         0.         0.         0.        
 0.001      0.         0.         0.         0.        
 0.002      0.0024935  0.9999     0.9999     0.9999    
 0.003      0.0049808  0.9999     0.9999     0.9999    
 0.0063456  0.013268   0.9999     0.9999     0.9999    
 0.017386   0.04013    0.9999     0.9999     0.9999    
 0.040782   0.094671   0.99991    0.99991    0.99991   
 0.11457    0.24756    0.99992    0.99992    0.99992   
 0.18835    0.37462    0.99994    0.99994    0.99994   
 0.32363    0.55551    0.99996    0.99996    0.99996   
 0.4589     0.68408    0.99997    0.99997    0.99997   
 0.59418    0.77546    0.99998    0.99998    0.99998   
 0.79709    0.86631    0.99999    0.99999    0.99999   
 1.         0.9204     0.99999    0.99999    0.99999   
#          
 27.       
#Freq       v(n1)      vp(n1)    
 0.001      1.        -0.14401   
 0.002      0.99999   -0.28803   
 0.004      0.99995   -0.57604   
 0.008      0.9998    -1.152     
 0.016      0.99919   -2.303     
 0.032      0.99678   -4.5986    
 0.064      0.98731   -9.1386    
 0.128      0.95194   -17.835    
 0.256      0.84095   -32.76     
 0.512      0.61358   -52.151    
 1.024      0.36215   -68.768    
 2.048      0.1907    -79.007    
 4.096      0.096676  -84.452    
 8.192      0.048508  -87.22     
 16.384     0.024276  -88.609    
 32.768     0.01214   -89.304    
 65.536     0.0060706 -89.652    
 131.07     0.0030353 -89.826    
Gnucap   System status
iterations: op=3, dc=0, tran=54, fourier=0, total=89
transient timesteps: accepted=14, rejected=0, total=14
nodes: user=4, subckt=0, model=0, total=4
dctran density=62.5%, ac density=62.5%
