#Time       v(nin)     v(nout1)   v(nout2)   i(r1)      dtr(c1)    dtr(c2)   
 0.         0.         0.         0.         0.         Inf        Inf       
 0.1        0.099998   0.0090907  0.0090907 -0.090907   0.1        0.1       
 0.2        0.2        0.02251    0.02251   -0.17749    0.1        0.1       
 0.3        0.29999    0.044176   0.044176  -0.25582    0.1        0.1       
 0.4        0.39999    0.073301   0.073301  -0.32669    0.19867    1.0227Meg 
 0.5        0.49999    0.10918    0.10918   -0.39082    0.23458    1.0574Meg 
 0.73171    0.7317     0.21439    0.21439   -0.51731    0.29561    1.0641Meg 
 1.         0.99999    0.36849    0.36849   -0.63149    0.40484    1.2166Meg 
 1.1304     0.99999    0.44136    0.44136   -0.55863    0.27947    1.3303G   
 1.4076     0.99999    0.57735    0.57735   -0.42264    0.35015    905.96K   
 1.6848     0.99999    0.68024    0.68024   -0.31976    0.51181    1.2538Meg 
 2.1739     1.         0.80591    0.80591   -0.19409    0.56199    1.3011Meg 
 2.663      1.         0.88219    0.88219   -0.11781    0.6964     1.5644Meg 
 3.1522     1.         0.92849    0.92849   -0.071511   0.77762    1.7173Meg 
 3.913      1.         0.9679     0.9679    -0.032096   0.94009    2.0475Meg 
 4.6739     1.         0.98559    0.98559   -0.014406   1.2136     2.6273Meg 
 5.7391     1.         0.99561    0.99561   -0.0043933  1.4776     3.188Meg  
 6.8043     1.         0.99866    0.99866   -0.0013398  2.0759     4.4744Meg 
 8.4022     1.         0.99985    0.99985   -149.78u    2.8436     6.1266Meg 
 10.        1.         0.99998    0.99998   -16.745u    4.6593     10.038Meg 
