name   ...
have 4 nodes. model: 1 sckt: 0 adp 0

n1       n1 matrix_number 3, user_number 2 nm[t]  vdc  0.
n2       n2 matrix_number 2, user_number 3 nm[t]  vdc  0.
nddt     nddt matrix_number 4, user_number 1 nm[t]  vdc  0.
-ddt1
-ddt1.v_p_n
br ddt1.v_p_n.br matrix_number 1, user_number 4 nm[t]  vdc  0.
#           v(n1)      v(n2)      v(nddt)    i(R1)      method(C1)
 0.         0.         0.         0.         0.        -1.        
*.options method=euler 
.model myddt diff ( gain=2)
ddt1 ( nddt 0 n1 0 ) myddt
V1 ( n1 0 ) pulse iv= 0. pv= 0.001 delay= 1.n rise= 0.001 fall= 0.001 width= 0.004 period= 0.008
R1 ( nddt n2 )  100.
C1 ( n2 0 )  1.u
#Time       v(n1)      v(n2)      v(nddt)    hidden(0) 
 0.         0.         0.         0.         0.        
 50.E-6     49.999E-6  0.78923    2.         8.        
 100.E-6    99.999E-6  1.2676     2.         1.        
 150.E-6    150.E-6    1.5569     2.         1.        
 200.E-6    200.E-6    1.7342     2.         0.        
 250.E-6    250.E-6    1.8405     2.         0.        
 300.E-6    300.E-6    1.9043     2.         0.        
 350.E-6    350.E-6    1.9426     2.         0.        
 400.E-6    400.E-6    1.9655     2.         0.        
 450.E-6    450.E-6    1.9793     2.         0.        
 500.E-6    500.E-6    1.9876     2.         0.        
 550.E-6    550.E-6    1.9926     2.         0.        
 600.E-6    600.E-6    1.9955     2.         0.        
 650.E-6    650.E-6    1.9973     2.         0.        
 700.E-6    700.E-6    1.9984     2.         0.        
 750.E-6    750.E-6    1.999      2.         0.        
 800.E-6    800.E-6    1.9994     2.         0.        
 850.E-6    850.E-6    1.9997     2.         0.        
 900.E-6    900.E-6    1.9998     2.         0.        
 950.E-6    950.E-6    1.9999     2.         0.        
 0.001      0.001      1.9999     2.         0.        
 0.00105    0.001      1.3223     63.E-15    5.        
 0.0011     0.001      0.79991    0.         1.        
 0.00115    0.001      0.4839     0.         1.        
 0.0012     0.001      0.29273    0.         1.        
 0.00125    0.001      0.17708    0.         1.        
 0.0013     0.001      0.10712    0.         1.        
 0.00135    0.001      0.064803   0.         1.        
 0.0014     0.001      0.039202   0.         1.        
 0.00145    0.001      0.023715   0.         1.        
 0.0015     0.001      0.014346   0.         1.        
 0.00155    0.001      0.0086784  0.         1.        
 0.0016     0.001      0.0052499  0.         1.        
 0.00165    0.001      0.0031759  0.         1.        
 0.0017     0.001      0.0019212  0.         1.        
 0.00175    0.001      0.0011622  0.         1.        
 0.0018     0.001      703.06E-6  0.         1.        
 0.00185    0.001      425.31E-6  0.         1.        
 0.0019     0.001      257.29E-6  0.         1.        
 0.00195    0.001      155.64E-6  0.         1.        
 0.002      0.001      94.154E-6  0.         1.        
 0.00205    0.001      56.957E-6  0.         1.        
 0.0021     0.001      34.456E-6  0.         1.        
 0.00215    0.001      20.844E-6  0.         1.        
 0.0022     0.001      12.609E-6  0.         1.        
 0.00225    0.001      7.6277E-6  0.         1.        
 0.0023     0.001      4.6143E-6  0.         1.        
 0.00235    0.001      2.7914E-6  0.         1.        
 0.0024     0.001      1.6748E-6  0.         0.        
 0.00245    0.001      1.0049E-6  0.         0.        
 0.0025     0.001      602.93E-9  0.         0.        
 0.00255    0.001      361.76E-9  0.         0.        
 0.0026     0.001      217.06E-9  0.         0.        
 0.00265    0.001      130.23E-9  0.         0.        
 0.0027     0.001      78.14E-9   0.         0.        
 0.00275    0.001      46.884E-9  0.         0.        
 0.0028     0.001      28.131E-9  0.         0.        
 0.00285    0.001      16.878E-9  0.         0.        
 0.0029     0.001      10.127E-9  0.         0.        
 0.00295    0.001      6.0762E-9  0.         0.        
 0.003      0.001      3.6457E-9  0.         0.        
 0.00305    0.001      2.1874E-9  0.         0.        
 0.0031     0.001      1.3125E-9  0.         0.        
 0.00315    0.001      787.5E-12  0.         0.        
 0.0032     0.001      472.5E-12  0.         0.        
 0.00325    0.001      283.5E-12  0.         0.        
 0.0033     0.001      170.1E-12  0.         0.        
 0.00335    0.001      102.1E-12  0.         0.        
 0.0034     0.001      61.23E-12  0.         0.        
 0.00345    0.001      36.74E-12  0.         0.        
 0.0035     0.001      22.04E-12  0.         0.        
 0.00355    0.001      13.23E-12  0.         0.        
 0.0036     0.001      7.936E-12  0.         0.        
 0.00365    0.001      4.762E-12  0.         0.        
 0.0037     0.001      2.857E-12  0.         0.        
 0.00375    0.001      1.714E-12  0.         0.        
 0.0038     0.001      1.028E-12  0.         0.        
 0.00385    0.001      617.E-15   0.         0.        
 0.0039     0.001      370.E-15   0.         0.        
 0.00395    0.001      222.E-15   0.         0.        
 0.004      0.001      133.E-15   0.         0.        
 0.00405    0.001      80.E-15    0.         0.        
 0.0041     0.001      48.E-15    0.         0.        
 0.00415    0.001      29.E-15    0.         0.        
 0.0042     0.001      17.E-15    0.         0.        
 0.00425    0.001      10.E-15    0.         0.        
 0.0043     0.001      6.E-15     0.         0.        
 0.00435    0.001      4.E-15     0.         0.        
 0.0044     0.001      2.E-15     0.         0.        
 0.00445    0.001      1.E-15     0.         0.        
 0.0045     0.001      1.E-15     0.         0.        
 0.00455    0.001      0.         0.         0.        
 0.0046     0.001      0.         0.         0.        
 0.00465    0.001      0.         0.         0.        
 0.0047     0.001      0.         0.         0.        
 0.00475    0.001      0.         0.         0.        
 0.0048     0.001      0.         0.         0.        
 0.00485    0.001      0.         0.         0.        
 0.0049     0.001      0.         0.         0.        
 0.00495    0.001      0.         0.         0.        
 0.005      0.001      0.         0.         0.        
 0.00505    950.E-6   -0.76266   -2.         8.        
 0.0051     900.E-6   -1.2515    -2.         1.        
 0.00515    850.E-6   -1.5472    -2.         1.        
 0.0052     800.E-6   -1.7283    -2.         0.        
 0.00525    750.E-6   -1.837     -2.         0.        
 0.0053     700.E-6   -1.9022    -2.         0.        
 0.00535    650.E-6   -1.9413    -2.         0.        
 0.0054     600.E-6   -1.9648    -2.         0.        
 0.00545    550.E-6   -1.9789    -2.         0.        
 0.0055     500.E-6   -1.9873    -2.         0.        
 0.00555    450.E-6   -1.9924    -2.         0.        
 0.0056     400.E-6   -1.9954    -2.         0.        
 0.00565    350.E-6   -1.9973    -2.         0.        
 0.0057     300.E-6   -1.9984    -2.         0.        
 0.00575    250.E-6   -1.999     -2.         0.        
 0.0058     200.E-6   -1.9994    -2.         0.        
 0.00585    150.E-6   -1.9996    -2.         0.        
 0.0059     100.E-6   -1.9998    -2.         0.        
 0.00595    50.001E-6 -1.9999    -2.         0.        
 0.006      1.E-9     -1.9999    -2.         0.        
 0.00605    0.        -1.2106     431.8E-12  9.        
 0.0061     0.        -0.73232    431.8E-12  1.        
 0.00615    0.        -0.44301    431.8E-12  1.        
 0.0062     0.        -0.26799    431.8E-12  1.        
 0.00625    0.        -0.16212    431.8E-12  1.        
 0.0063     0.        -0.098072   431.8E-12  1.        
 0.00635    0.        -0.059328   431.8E-12  1.        
 0.0064     0.        -0.035889   431.8E-12  1.        
 0.00645    0.        -0.021711   431.8E-12  1.        
 0.0065     0.        -0.013134   431.8E-12  1.        
 0.00655    0.        -0.0079451  431.8E-12  1.        
 0.0066     0.        -0.0048063  431.8E-12  1.        
 0.00665    0.        -0.0029075  431.8E-12  1.        
 0.0067     0.        -0.0017589  431.8E-12  1.        
 0.00675    0.        -0.001064   431.8E-12  1.        
 0.0068     0.        -643.66E-6  431.8E-12  1.        
 0.00685    0.        -389.37E-6  431.8E-12  1.        
 0.0069     0.        -235.55E-6  431.8E-12  1.        
 0.00695    0.        -142.49E-6  431.8E-12  1.        
 0.007      0.        -86.2E-6    431.8E-12  1.        
 0.00705    0.        -52.146E-6  431.8E-12  1.        
 0.0071     0.        -31.545E-6  431.8E-12  1.        
 0.00715    0.        -19.083E-6  431.8E-12  1.        
 0.0072     0.        -11.545E-6  431.8E-12  1.        
 0.00725    0.        -6.9842E-6  431.8E-12  1.        
 0.0073     0.        -4.2254E-6  431.8E-12  1.        
 0.00735    0.        -2.5356E-6 -431.8E-12  0.        
 0.0074     0.        -1.5218E-6  431.8E-12  0.        
 0.00745    0.        -913.45E-9 -431.8E-12  0.        
 0.0075     0.        -548.46E-9  431.8E-12  0.        
 0.00755    0.        -329.47E-9 -431.8E-12  0.        
 0.0076     0.        -198.07E-9  431.8E-12  0.        
 0.00765    0.        -119.23E-9 -431.8E-12  0.        
 0.0077     0.        -71.932E-9  431.8E-12  0.        
 0.00775    0.        -43.551E-9 -431.8E-12  0.        
 0.0078     0.        -26.522E-9  431.8E-12  0.        
 0.00785    0.        -16.304E-9 -431.8E-12  0.        
 0.0079     0.        -10.174E-9  431.8E-12  0.        
 0.00795    0.        -6.4955E-9 -431.8E-12  0.        
 0.008      0.        -4.2886E-9  431.8E-12  0.        
 0.00805    49.999E-6  0.78791    2.         17.       
 0.0081     99.999E-6  1.2668     2.         1.        
 0.00815    150.E-6    1.5564     2.         1.        
 0.0082     200.E-6    1.7339     2.         0.        
 0.00825    250.E-6    1.8403     2.         0.        
 0.0083     300.E-6    1.9042     2.         0.        
 0.00835    350.E-6    1.9425     2.         0.        
 0.0084     400.E-6    1.9655     2.         0.        
 0.00845    450.E-6    1.9793     2.         0.        
 0.0085     500.E-6    1.9876     2.         0.        
 0.00855    550.E-6    1.9925     2.         0.        
 0.0086     600.E-6    1.9955     2.         0.        
 0.00865    650.E-6    1.9973     2.         0.        
 0.0087     700.E-6    1.9984     2.         0.        
 0.00875    750.E-6    1.999      2.         0.        
 0.0088     800.E-6    1.9994     2.         0.        
 0.00885    850.E-6    1.9997     2.         0.        
 0.0089     900.E-6    1.9998     2.         0.        
 0.00895    950.E-6    1.9999     2.         0.        
 0.009      0.001      1.9999     2.         0.        
 0.00905    0.001      1.3223     125.E-15   5.        
 0.0091     0.001      0.79991   -156.E-15   1.        
 0.00915    0.001      0.4839    -156.E-15   1.        
 0.0092     0.001      0.29273   -156.E-15   1.        
 0.00925    0.001      0.17708   -156.E-15   1.        
 0.0093     0.001      0.10712   -156.E-15   1.        
 0.00935    0.001      0.064803  -156.E-15   1.        
 0.0094     0.001      0.039202  -156.E-15   1.        
 0.00945    0.001      0.023715  -156.E-15   1.        
 0.0095     0.001      0.014346  -156.E-15   1.        
 0.00955    0.001      0.0086784 -156.E-15   1.        
 0.0096     0.001      0.0052499 -156.E-15   1.        
 0.00965    0.001      0.0031759 -156.E-15   1.        
 0.0097     0.001      0.0019212 -156.E-15   1.        
 0.00975    0.001      0.0011622 -156.E-15   1.        
 0.0098     0.001      703.06E-6 -156.E-15   1.        
 0.00985    0.001      425.31E-6 -156.E-15   1.        
 0.0099     0.001      257.29E-6 -156.E-15   1.        
 0.00995    0.001      155.64E-6 -156.E-15   1.        
 0.01       0.001      94.154E-6 -156.E-15   1.        
Gnucap   System status
iterations: op=0, dc=3, tran=1240, fourier=0, total=1572
transient timesteps: accepted=315, rejected=14, total=329
nodes: user=3, subckt=0, model=1, total=4
dctran density=87.5%, ac density=87.5%
