#           v(ndd)     omega(M1)  v(M1.p2)   v(M1.t1)   reff(M1)   P_el(M1)   P_rad(M1)  P_rot(M1)  v(nsens)   state0(M1)
 0.         0.         0.         0.         0.         0.         0.         ??         0.         0.         0.        
#Time       v(M1.l1)   v(ndd)     I(M1)      I(R1)      omega(M1)  v(nsens)  
 0.         0.         0.         0.         0.         0.         0.        
 0.05       905.91u    0.5        0.         0.045372   0.0011131  2.2262u   
 0.1        906.u      1.         0.         0.090827   0.004387   8.7741u   
 0.15       1.6518u    1.         0.         0.09091    0.0085068  17.014u   
 0.2        1.6043u    1.         0.         0.09091    0.012525   25.051u   
 0.25      -1.5788u    1.         0.         0.090911   0.016348   32.697u   
 0.3        1.5805u    1.         0.         0.090911   0.019985   39.969u   
 0.35      -1.5565u    1.         0.         0.090911   0.023443   46.887u   
 0.4        1.5572u    1.         0.         0.090911   0.026733   53.466u   
 0.45      -1.5345u    1.         0.         0.090912   0.029862   59.725u   
 0.5        1.5342u    1.         0.         0.090912   0.032839   65.678u   
 0.55      -1.5128u    1.         0.         0.090912   0.03567    71.34u    
 0.6        1.5116u    1.         0.         0.090912   0.038363   76.726u   
 0.65      -1.4914u    1.         0.         0.090913   0.040925   81.849u   
 0.7        1.4894u    1.         0.         0.090913   0.043361   86.722u   
 0.75      -1.4702u    1.         0.         0.090913   0.045678   91.357u   
 0.8        1.4676u    1.         0.         0.090913   0.047883   95.765u   
 0.85      -1.4493u    1.         0.         0.090914   0.049979   99.959u   
 0.9        1.446u     1.         0.         0.090914   0.051974   103.95u   
 0.95      -1.4287u    1.         0.         0.090914   0.053871   107.74u   
 1.         1.4249u    1.         0.         0.090914   0.055675   111.35u   
t1= 0.03283899
#Time       v(M1.l1)   v(ndd)     I(M1)      I(R1)      omega(M1)  v(nsens)  
 1.         1.4249u    1.         0.         0.090914   0.055675   111.35u   
 1.05      -207.86u    0.9        0.         0.081842   0.057168   114.34u   
 1.1       -155.97u    0.8        0.         0.072747   0.058147   116.29u   
 1.15      -207.48u    0.7        0.         0.06366    0.058635   117.27u   
 1.2       -156.34u    0.6        0.         0.054565   0.058655   117.31u   
 1.25      -207.11u    0.5        0.         0.045479   0.058231   116.46u   
 1.3       -156.71u    0.4        0.         0.036383   0.057385   114.77u   
 1.35      -206.75u    0.3        0.         0.027297   0.056136   112.27u   
 1.4       -157.07u    0.2        0.         0.018201   0.054505   109.01u   
 1.45      -206.39u    0.1        0.         0.0091144  0.052509   105.02u   
 1.5       -157.43u   -188.73p    0.         18.873u    0.050168   100.34u   
 1.55      -206.04u   -0.1        0.        -0.0090679  0.047498   94.996u   
 1.6       -157.79u   -0.2        0.        -0.018163   0.044514   89.029u   
 1.65      -205.69u   -0.3        0.        -0.02725    0.041233   82.467u   
 1.7       -158.13u   -0.4        0.        -0.036346   0.037669   75.338u   
 1.75      -205.34u   -0.5        0.        -0.045433   0.033835   67.67u    
 1.8       -158.48u   -0.6        0.        -0.054528   0.029745   59.49u    
 1.85      -205.01u   -0.7        0.        -0.063615   0.025411   50.822u   
 1.9       -158.81u   -0.8        0.        -0.072711   0.020845   41.691u   
 1.95      -204.67u   -0.9        0.        -0.081798   0.016059   32.118u   
 2.        -159.15u   -1.         0.        -0.090894   0.011063   22.126u   
t2= 0.0501682
s2= 100.3364u
#Time       v(M1.l1)   v(ndd)     I(M1)      I(R1)      omega(M1)  v(nsens)  
 2.        -159.15u   -1.         0.        -0.090894   0.011063   22.126u   
 2.05       53.683u   -0.95       0.        -0.086368   0.0062002  12.4u     
 2.1        54.87u    -0.9        0.        -0.081823   0.0017964  3.5928u   
 2.15       126.67u   -0.85       0.        -0.077284  -0.0021719 -4.3438u   
 2.2        55.392u   -0.8        0.        -0.072733  -0.0057247 -11.449u   
 2.25       126.16u   -0.75       0.        -0.068194  -0.0088823 -17.765u   
 2.3        55.906u   -0.7        0.        -0.063642  -0.011664  -23.328u   
 2.35       125.65u   -0.65       0.        -0.059104  -0.014088  -28.177u   
 2.4        56.413u   -0.6        0.        -0.054552  -0.016172  -32.345u   
 2.45       125.15u   -0.55       0.        -0.050013  -0.017933  -35.866u   
 2.5        56.912u   -0.5        0.        -0.045461  -0.019386  -38.772u   
 2.55       124.66u   -0.45       0.        -0.040922  -0.020546  -41.093u   
 2.6        57.404u   -0.4        0.        -0.036371  -0.021428  -42.856u   
 2.65       124.17u   -0.35       0.        -0.031831  -0.022045  -44.091u   
 2.7        57.889u   -0.3        0.        -0.02728   -0.022411  -44.821u   
 2.75       123.69u   -0.25       0.        -0.022741  -0.022536  -45.073u   
 2.8        58.366u   -0.2        0.        -0.018189  -0.022434  -44.868u   
 2.85       123.22u   -0.15       0.        -0.01365   -0.022115  -44.231u   
 2.9        58.837u   -0.1        0.        -0.0090982 -0.02159   -43.18u    
 2.95       122.75u   -0.05       0.        -0.0045585 -0.020869  -41.738u   
 3.         59.301u    72.054p    0.        -7.2057u   -0.019961  -39.923u   
 3.05       1.6706n    17.262p    0.        -1.7262u   -0.018987  -37.974u   
 3.1        1.7003n    16.42p     0.        -1.642u    -0.01806   -36.12u    
 3.15       1.5068n    15.618p    0.        -1.5618u   -0.017178  -34.357u   
 3.2        1.5429n    14.856p    0.        -1.4856u   -0.01634   -32.679u   
 3.25       1.3587n    14.13p     0.        -1.413u    -0.015542  -31.084u   
 3.3        1.4004n    13.44p     0.        -1.344u    -0.014783  -29.566u   
 3.35       1.2248n    12.784p    0.        -1.2784u   -0.014061  -28.122u   
 3.4        1.2715n    12.16p     0.        -1.216u    -0.013375  -26.749u   
 3.45       1.1037n    11.566p    0.        -1.1566u   -0.012722  -25.443u   
 3.5        1.1547n    11.002p    0.        -1.1002u   -0.012101  -24.201u   
 3.55       994.2p     10.464p    0.        -1.0464u   -0.01151   -23.02u    
 3.6        1.0491n    9.954p     0.        -995.35n   -0.010948  -21.896u   
 3.65       895.19p    9.467p     0.        -946.75n   -0.010413  -20.827u   
 3.7        953.39p    9.005p     0.        -900.53n   -0.0099049 -19.81u    
 3.75       805.67p    8.566p     0.        -856.56n   -0.0094213 -18.843u   
 3.8        866.77p    8.147p     0.        -814.74n   -0.0089613 -17.923u   
 3.85       724.74p    7.75p      0.        -774.96n   -0.0085238 -17.048u   
 3.9        788.35p    7.371p     0.        -737.13n   -0.0081076 -16.215u   
 3.95       651.59p    7.011p     0.        -701.13n   -0.0077118 -15.424u   
 4.         717.33p    6.669p     0.        -666.91n   -0.0073353 -14.671u   
 4.05       585.46p    6.343p     0.        -634.34n   -0.0069771 -13.954u   
 4.1        653.02p    6.034p     0.        -603.38n   -0.0066365 -13.273u   
 4.15       525.69p    5.739p     0.        -573.91n   -0.0063125 -12.625u   
 4.2        594.78p    5.459p     0.        -545.9n    -0.0060043 -12.009u   
 4.25       471.67p    5.192p     0.        -519.24n   -0.0057111 -11.422u   
 4.3        542.03p    4.939p     0.        -493.89n   -0.0054323 -10.865u   
 4.35       422.85p    4.698p     0.        -469.77n   -0.0051671 -10.334u   
 4.4        494.25p    4.468p     0.        -446.84n   -0.0049148 -9.8296u   
 4.45       378.74p    4.25p      0.        -425.02n   -0.0046748 -9.3496u   
 4.5        450.97p    4.043p     0.        -404.28n   -0.0044466 -8.8932u   
 4.55       338.89p    3.845p     0.        -384.53n   -0.0042295 -8.459u    
 4.6        411.75p    3.658p     0.        -365.76n   -0.004023  -8.046u    
 4.65       302.89p    3.479p     0.        -347.9n    -0.0038266 -7.6531u   
 4.7        376.22p    3.309p     0.        -330.92n   -0.0036397 -7.2795u   
 4.75       270.37p    3.148p     0.        -314.75n   -0.003462  -6.9241u   
 4.8        344.01p    2.994p     0.        -299.4n    -0.003293  -6.586u    
 4.85       241.p      2.848p     0.        -284.77n   -0.0031322 -6.2645u   
 4.9        314.82p    2.709p     0.        -270.87n   -0.0029793 -5.9586u   
 4.95       214.49p    2.576p     0.        -257.64n   -0.0028338 -5.6677u   
 5.         288.37p    2.451p     0.        -245.07n   -0.0026955 -5.391u    
t3=-0.01210059
Gnucap   System status
iterations: op=0, dc=4, tran=351, fourier=0, total=726
transient timesteps: accepted=143, rejected=3, total=146
nodes: user=3, subckt=0, model=3, total=6
dctran density=66.7%, ac density=66.7%
