//* this file is part of gnucap-adms 
//* Copyright (C) 2013 Felix Salfelder 
//* License GPLv3 (or later) 
paramset myota someop;
 .Rf=NA( 10.); .R1=NA( 100.Meg); .output_range=NA( 0.7); .f0dB=1e6; .Sr=5e5; .Rout=NA( 75.); .Rinn=NA( 2.G); .Rinp=NA( 2.G); .Rin=NA( 2.Meg); .gain=1820000;
endparmset

// myota OTA0 (nout, nss, ninp, nout, ndd, nss);
module op103b (0,0,0,0,0);
myota #() OTA0 (.out(0),.vref(0),.inp(0),.inn(0),.vddp(0),.vddn(0));
endmodule // op103b

myota #() OTA1 (.out(nout),.vref(nss),.inp(ninp),.inn(ninn),.vddp(ndd),.vddn(nss));
//* Xop1 nout ninp ninn ndd nss op103b 
vsource_value #() Vss (.p(nss),.n(0));
vsource_value #() Vdd (.p(ndd),.n(0));
vsource_value #() V2 (.p(ninn),.n(0));
vsource_sin #(.offset(NA( 0.)),.amplitude( 1.u),.frequency( 1.),.zero(1),.peak(1)) vin (.p(ninp),.n(ninn));
#Time       v(ndd)     v(ninn)    v(ninp)    v(nout)    v(nss)     v(vin)    
 0.         5.         1.         1.         1.5002    -2.         0.        
 0.01       5.         1.         1.         1.504     -2.         62.791n   
 0.02       5.         1.         1.         1.5097    -2.         125.33n   
 0.03       5.         1.         1.         1.519     -2.         187.38n   
 0.04       5.         1.         1.         1.5319    -2.         248.69n   
 0.05       5.         1.         1.         1.548     -2.         309.02n   
 0.077941   5.         1.         1.         1.6089    -2.         470.38n   
 0.10588    5.         1.         1.         1.69      -2.         617.28n   
 0.15059    5.         1.         1.         1.849     -2.         811.18n   
 0.19529    5.         1.         1.         2.0276    -2.         941.51n   
 0.25       5.         1.         1.         2.2414    -2.         1.u       
 0.30471    5.         1.         1.         2.4184    -2.         941.51n   
 0.35941    5.         1.         1.         2.5291    -2.         772.86n   
 0.41412    5.         1.         1.         2.5536    -2.         513.81n   
 0.5        5.         1.         1.         2.4023    -2.         0.        
 0.58588    5.         1.         1.         2.0486    -2.        -513.81n   
 0.67176    5.         1.         1.         1.5791    -2.        -881.59n   
 0.73741    5.         1.         1.         1.2151    -2.        -996.87n   
 0.75       5.         1.         1.         1.1499    -2.        -1.u       
 0.8        5.         1.         1.         0.92347   -2.        -951.06n   
 0.85       5.         1.         1.         0.76061   -2.        -809.02n   
 0.925      5.         1.         1.         0.6667    -2.        -453.99n   
 1.         5.         1.         1.         0.76308   -2.         0.        
#           v(ndd)     v(ninn)    v(ninp)    v(nout)    v(nss)     v(vin)    
 0.         5.         1.         1.         1.5002    -2.         0.        
 100.n      5.         1.         1.         1.6822    -2.         100.n     
 200.n      5.         1.         1.         1.8642    -2.         200.n     
 300.n      5.         1.         1.         2.0461    -2.         300.n     
 400.n      5.         1.         1.         2.2281    -2.         400.n     
 500.n      5.         1.         1.         2.4101    -2.         500.n     
 600.n      5.         1.         1.         2.5921    -2.         600.n     
 700.n      5.         1.         1.         2.7741    -2.         700.n     
 800.n      5.         1.         1.         2.9561    -2.         800.n     
 900.n      5.         1.         1.         3.138     -2.         900.n     
 1.u        5.         1.         1.         3.2       -2.         1.u       
