//* note: nodenames case-sensitive 
paramset myota opamp;
 .Rf=NA( 10.); .r1=NA( 100.Meg); .f0dB=1e6; .Sr=5e5; .Rout=NA( 75.); .Rinn=NA( 2.G); .Rinp=NA( 2.G); .Rin=NA( 2.Meg); .A0=2e5;
endparmset

// biased by 1V
myota #() OTA1 (.out(nout1),.inp(nin_p),.inn(0),.vddp(ndd),.vddn(ndd_minus),.vref(nvbias));
// unbiased
myota #() OTA0 (.out(nout0),.inp(nin_p),.inn(0),.vddp(ndd),.vddn(ndd_minus));
// bypass paramset
opamp #() OTA2 (.out(nout2),.inp(nin_p),.inn(0),.vddp(ndd),.vddn(ndd_minus));
* note: nodenames case-sensitive 
.model myota opamp ( Rf=NA( 10.) r1=NA( 100.Meg) f0dB=1e6 Sr=5e5 Rout=NA( 75.) Rinn=NA( 2.G) Rinp=NA( 2.G) Rin=NA( 2.Meg) A0=2e5)
*// biased by 1V
OTA1 ( nout1 nin_p 0 ndd ndd_minus nvbias ) myota
*// unbiased
OTA0 ( nout0 nin_p 0 ndd ndd_minus ) myota
*// bypass paramset
OTA2 ( nout2 nin_p 0 ndd ndd_minus ) opamp
#Time       v(ndd)     v(ndd_minus) v(nin_p)   v(nout0)   v(nout1)   v(nout2)   v(nvbias) 
 0.         1.7       -1.7        5.f        999.15p    0.99915    999.9p     1.        
 0.1        1.7       -1.7        2.9389u    0.41715    1.4163     0.41747    1.        
 0.2        1.7       -1.7        4.7553u    0.85414    1.6987     0.85478    1.        
 0.3        1.7       -1.7        4.7553u    0.97303    1.6987     0.97376    1.        
 0.4        1.7       -1.7        2.9389u    0.72341    1.6662     0.72395    1.        
 0.5        1.7       -1.7        5.f        0.19287    1.1903     0.19301    1.        
 0.6        1.7       -1.7       -2.9389u   -0.40858    0.59052   -0.40889    1.        
 0.7        1.7       -1.7       -4.7553u   -0.85331    0.14584   -0.85395    1.        
 0.8        1.7       -1.7       -4.7553u   -0.97295    0.026203  -0.97368    1.        
 0.9        1.7       -1.7       -2.9389u   -0.72096    0.27819   -0.72151    1.        
 1.         1.7       -1.7        5.f       -0.19874    0.80041   -0.19889    1.        
#Time       v(ndd)     v(ndd_minus) v(nin_p)   v(nout0)   v(nout1)   v(nout2)   v(nvbias) 
 1.         1.7       -1.7        5.f       -0.19874    0.80041   -0.19889    1.        
 1.1        1.7       -1.7        1.1756     1.7003     1.7003     1.7016     1.        
 1.2        1.7       -1.7        1.9021     1.7003     1.7003     1.7016     1.        
 1.3        1.7       -1.7        1.9021     1.7003     1.7003     1.7016     1.        
 1.4        1.7       -1.7        1.1756     1.7003     1.7003     1.7016     1.        
 1.5        1.7       -1.7        5.f        1.6987     1.6987     1.7        1.        
 1.6        1.7       -1.7       -1.1756    -1.7003    -1.7003    -1.7016     1.        
 1.7        1.7       -1.7       -1.9021    -1.7003    -1.7003    -1.7016     1.        
 1.8        1.7       -1.7       -1.9021    -1.7003    -1.7003    -1.7016     1.        
 1.9        1.7       -1.7       -1.1756    -1.7003    -1.7003    -1.7016     1.        
 2.         1.7       -1.7        2.f       -1.6987    -1.6987    -1.7        1.        
#Time       v(ndd)     v(ndd_minus) v(nin_p)   v(nout0)   v(~out     v(nout2)   v(nvbias) 
 0.         1.7       -1.7        5.f        999.1~     0.99915    999.9p     1.        
 1.u        1.7       -1.7        1.1756     0.48~      1.482~     0.48326    1.        
 2.u        1.7       -1.7        1.9021     0.9825     1.7015     0.98323    1.        
 3.u        1.7       -1.7        1.9021     1.4821     1.69~      1.4832     1.        
 4.u        1.7       -1.7        1.1756     1.701~     1.699~     1.7027     1.        
 5.u        1.7       -1.7        5.f        1.699~     1.627~     1.7011     1.        
 6.u        1.7       -1.7       -1.1756     1.238~     1.25~      1.2391     1.        
 7.u        1.7       -1.7       -1.9021     0.738~     0.752~     0.73902    1.        
 8.u        1.7       -1.7       -1.9021     0.238~     0.253~     0.23901    1.        
 9.u   ~    1.7       -1.7       -1.1756    -0.2608    -0.24656   -0.26099    1.        
 10.u       1.7       -1.7        4.f       -0.5106    -0.49633   -0.51098    1.        
x= 8.478013u
