#Time       v(nin)     v(nout1)   v(nout2)   i(r1)      dtr(c1)    dtr(c2)   
 0.         0.         0.         0.         0.         Inf        Inf       
 0.1        0.099998   0.0090907  0.0090907 -0.090907   0.1        0.1       
 0.2        0.2        0.02251    0.02251   -0.17749    0.1        0.1       
 0.3        0.29999    0.044176   0.044176  -0.25582    0.1        0.1       
 0.4        0.39999    0.073301   0.073301  -0.32669    0.19867    1.0227Meg 
 0.59592    0.59591    0.14908    0.14908   -0.44683    0.25427    1.0331Meg 
 0.79184    0.79183    0.24629    0.24629   -0.54554    0.3391     1.1655Meg 
 1.         0.99999    0.36877    0.36877   -0.63122    0.39282    1.1802Meg 
 1.3913     0.99999    0.57535    0.57535   -0.42464    0.26904    696.91K   
 1.6603     0.99999    0.67604    0.67604   -0.32395    0.39654    973.4K    
 1.9293     1.         0.75286    0.75286   -0.24714    0.52496    1.2432Meg 
 2.4338     1.         0.85241    0.85241   -0.14759    0.62505    1.4203Meg 
 2.9382     1.         0.91186    0.91186   -0.088136   0.77379    1.7191Meg 
 3.6444     1.         0.95786    0.95786   -0.042138   0.8673     1.8956Meg 
 4.3505     1.         0.97985    0.97985   -0.020146   1.1051     2.3971Meg 
 5.2921     1.         0.99275    0.99275   -0.0072492  1.3438     2.9021Meg 
 6.2337     1.         0.99739    0.99739   -0.0026084  1.8269     3.9393Meg 
 7.4891     1.         0.9994     0.9994    -596.61u    2.4086     5.1903Meg 
 8.7446     1.         0.99986    0.99986   -136.46u    3.6165     7.7918Meg 
 10.        1.         0.99997    0.99997   -31.212u    5.1786     11.157Meg 
