#          

--- aa -------
 100.K -100.K  0.  0. 
-100.K  100.K  0.  0. 
 300.Meg -300.Meg  1.p  0. 
-300.Meg  300.Meg  0.  1.p 
--- i ----
 0.,  0.,  10., -10., 
-----
open circuit: internal node 2

--- aa -------
 100.K -100.K  0.  0. 
-100.K  100.K  0.  0. 
 300.Meg -300.Meg  1.p  0. 
-300.Meg  300.Meg  0.  1.p 
--- i ----
 0.,  0.,  10., -10., 
-----
 0.        
#           v(ninn1)   v(ninn2)   v(ninp1)   v(ninp2)   v(noutn1)  v(noutn2)  v(noutp1)  v(noutp2) 
 0.         0.         0.         0.         0.         0.         0.         0.         0.        
-1.         0.001      1.G        0.001      0.        -8.5p       1.5p       8.5       -1.5       
-2.         0.001      1.G        0.001      0.        -8.5p       1.5p       8.5       -1.5       
 0.         0.001      1.G        0.001      0.        -8.5p       1.5p       8.5       -1.5       
#Time       v(ninn1)   v(ninn2)   v(ninp1)   v(ninp2)   v(noutn1)  v(noutn2)  v(noutp1)  v(noutp2) 
 0.         0.001      1.G        0.001      0.        -8.5p       1.5p       8.5       -1.5       
 0.1        800.u      800.Meg    800.u      0.        -8.8p       1.2p       8.8       -1.2       
 0.2        600.u      600.Meg    600.u      0.        -9.1p       900.f      9.1       -0.9       
 0.3        400.u      400.Meg    400.u      0.        -9.4p       600.f      9.4       -0.6       
 0.4        200.u      200.Meg    200.u      0.        -9.701p     300.f      9.7       -0.3       
 0.5        0.         0.         0.         0.        -10.001p    0.         10.        0.        
 0.6       -200.u     -200.Meg   -200.u      0.        -10.301p   -300.f      10.3       0.3       
 0.7       -400.u     -400.Meg   -400.u      0.        -10.601p   -600.f      10.6       0.6       
 0.8       -600.u     -600.Meg   -600.u      0.        -10.902p   -900.f      10.9       0.9       
 0.9       -800.u     -800.Meg   -800.u      0.        -11.202p   -1.2p       11.2       1.2       
 1.        -0.001     -1.G       -0.001      0.        -11.5p     -1.5p       11.5       1.5       
