paramset mycoil_auto coil_auto;

                     ^ ? paramset: no match
 .inductance=1;

 ^ ? .inductance: no match
endparamset

^ ? endparamset: no match
mycoil_auto la (na,0);

^ ? mycoil_auto: no match
.model mycoil_mag coil_mag ( inductance=1)
lm ( nm 0 )  mycoil_mag 
V1 ( n1 0 ) pulse iv= 0. pv= 1. delay= 0. rise= 0.001 fall=NA( 0.) width=NA( Inf) period=NA( Inf)
Ra ( n1 na )  1.K
Rb ( n1 nb )  1.K
Rm ( n1 nm )  1.K
* builtin coil for comparison 
Lb ( nb 0 )  1.
#Time       v(n1)      v(na)      v(nb)      v(nm)      i(Ra)      i(Rb)      i(Rm)      v(lm)      v(Lb)      inductance(Lb)
 0.         0.         0.         0.         0.         0.         0.         0.         0.         0.         1.        
 100.u      0.1        0.1        0.090909   0.090909   100.f      9.0909u    9.0909u    0.090909   0.090909   1.        
 200.u      0.2        0.2        0.17749    0.17749    200.f      22.511u    22.511u    0.17749    0.17749    1.        
 300.u      0.3        0.3        0.25582    0.25582    300.f      44.176u    44.176u    0.25582    0.25582    1.        
 400.u      0.4        0.4        0.3267     0.3267     400.f      73.303u    73.303u    0.3267     0.3267     1.        
 500.u      0.5        0.5        0.39082    0.39082    500.f      109.18u    109.18u    0.39082    0.39082    1.        
 731.71u    0.73171    0.73171    0.51732    0.51732    731.71f    214.39u    214.39u    0.51732    0.51732    1.        
 0.001      1.         1.         0.6315     0.6315     1.p        368.5u     368.5u     0.6315     0.6315     1.        
 0.0013913  1.         1.         0.42483    0.42483    1.p        575.17u    575.17u    0.42483    0.42483    1.        
 0.001669   1.         1.         0.32124    0.32124    1.p        678.76u    678.76u    0.32124    0.32124    1.        
 0.0019467  1.         1.         0.24291    0.24291    1.p        757.09u    757.09u    0.24291    0.24291    1.        
 0.00245    1.         1.         0.14523    0.14523    1.p        854.77u    854.77u    0.14523    0.14523    1.        
 0.0029534  1.         1.         0.086827   0.086827   1.p        913.17u    913.17u    0.086827   0.086827   1.        
 0.003658   1.         1.         0.041584   0.041584   1.p        958.42u    958.42u    0.041584   0.041584   1.        
 0.0043627  1.         1.         0.019916   0.019916   1.p        980.08u    980.08u    0.019916   0.019916   1.        
 0.0053022  1.         1.         0.0071846  0.0071846  1.p        992.82u    992.82u    0.0071846  0.0071846  1.        
 0.0062418  1.         1.         0.0025918  0.0025918  1.p        997.41u    997.41u    0.0025918  0.0025918  1.        
 0.0074945  1.         1.         595.44u    595.44u    1.p        999.4u     999.4u     595.44u    595.44u    1.        
 0.0087473  1.         1.         136.79u    136.79u    1.p        999.86u    999.86u    136.79u    136.79u    1.        
 0.01       1.         1.         31.426u    31.426u    1.p        999.97u    999.97u    31.426u    31.426u    1.        
