#           v(n1)      v(nb)      v(nint)    v(nm)      i(Rint)    i(Rb)      i(Rm)     
 0.         0.         0.         0.         0.         0.         0.         0.        
.model mycoil_int coil_idt ( inductance=1)
*// BUG: breaks with smaller value?!

.model mycoil_mag coil_mag ( inductance=1)
lint ( nint 0 )  mycoil_int 
lm ( nm 0 )  mycoil_mag 
V1 ( n1 0 ) pulse iv= 0. pv= 1. delay= 0. rise= 0.001 fall=NA( 0.) width=NA( Inf) period=NA( Inf)
Rint ( n1 nint )  100.
Rb ( n1 nb )  100.
Rm ( n1 nm )  100.
* builtin coil for comparison 
Lb ( nb 0 )  1.
#Time       v(nb)      v(nint)    v(lm)      i(Rint)    i(Rb)      i(Rm)      hidden(0) 
 0.         0.         0.         0.         0.         0.         0.         1.        
 500.E-6    0.48772    0.48772    0.48772    122.84E-6  122.84E-6  122.84E-6  12.       
 0.001      0.95166    0.95166    0.95166    483.41E-6  483.41E-6  483.41E-6  2.        
 0.0015     0.90524    0.90524    0.90524    947.57E-6  947.56E-6  947.56E-6  5.        
 0.002      0.86109    0.86108    0.86109    0.0013891  0.0013891  0.0013891  1.        
 0.0025     0.81908    0.81908    0.81908    0.0018092  0.0018092  0.0018092  1.        
 0.003      0.77913    0.77913    0.77913    0.0022087  0.0022087  0.0022087  1.        
 0.0035     0.74112    0.74112    0.74112    0.0025888  0.0025888  0.0025888  1.        
 0.004      0.70497    0.70497    0.70497    0.0029503  0.0029503  0.0029503  1.        
 0.0045     0.67058    0.67058    0.67058    0.0032942  0.0032942  0.0032942  1.        
 0.005      0.63787    0.63787    0.63787    0.0036213  0.0036213  0.0036213  1.        
 0.0055     0.60675    0.60675    0.60675    0.0039325  0.0039325  0.0039325  1.        
 0.006      0.57715    0.57715    0.57715    0.0042285  0.0042284  0.0042284  1.        
 0.0065     0.549      0.549      0.549      0.00451    0.00451    0.00451    1.        
 0.007      0.52222    0.52222    0.52222    0.0047778  0.0047778  0.0047778  1.        
 0.0075     0.49675    0.49675    0.49675    0.0050325  0.0050325  0.0050325  1.        
 0.008      0.47251    0.47251    0.47251    0.0052749  0.0052749  0.0052749  1.        
 0.0085     0.44947    0.44946    0.44947    0.0055054  0.0055053  0.0055053  1.        
 0.009      0.42754    0.42754    0.42754    0.0057246  0.0057246  0.0057246  1.        
 0.0095     0.40668    0.40668    0.40668    0.0059332  0.0059332  0.0059332  1.        
 0.01       0.38685    0.38685    0.38685    0.0061315  0.0061315  0.0061315  1.        
Gnucap   System status
iterations: op=0, dc=3, tran=142, fourier=0, total=182
transient timesteps: accepted=34, rejected=3, total=37
nodes: user=4, subckt=0, model=1, total=5
dctran density=68.0%, ac density=68.0%
