#           v(n1)      v(na)      v(nb)      v(nbr)     v(nint)    v(nm)      i(Ra)      i(Rint)    i(Rb)      i(Rbr)     i(Rm)     
 0.         0.         0.         0.         0.         0.         0.         0.         0.         0.         0.         0.        
.model mycoil_br coil_br ( inductance=100m)
.model mycoil_int coil_idt ( inductance=1)
.model mycoil_mag coil_mag ( inductance=1)
lint ( nint 0 )  mycoil_int 
lbr ( nbr 0 )  mycoil_br 
lm ( nm 0 )  mycoil_mag 
V1 ( n1 0 ) pulse iv= 0. pv= 1. delay= 0. rise= 0.001 fall=NA( 0.) width=NA( Inf) period=NA( Inf)
Ra ( n1 na )  1.K
Rint ( n1 nint )  100.
Rb ( n1 nb )  100.
Rbr ( n1 nbr )  100.
Rm ( n1 nm )  1.K
* builtin coil for comparison 
Lb ( nb 0 )  0.1
#Time       v(n1)      v(na)      v(nb)      v(nbr)     v(nint)    v(nm)      i(Ra)      i(Rint)    i(Rb)      i(Rbr)     i(Rm)      v(lm)      v(Lb)      inductance(Lb)
 0.         0.         0.         0.         0.         0.         0.         0.         0.         0.         0.         0.         0.         0.         0.1       
 7.1431E-9  7.1431E-6  7.1431E-6  7.1431E-6  7.1431E-6  7.1431E-6  7.1431E-6  7.143E-18  25.52E-15  510.2E-15  510.1E-15  51.03E-15  7.1431E-6  7.1431E-6  0.1       
 14.286E-9  14.286E-6  14.286E-6  14.286E-6  14.286E-6  14.286E-6  14.286E-6  14.29E-18  102.1E-15  1.276E-12  1.276E-12  127.6E-15  14.286E-6  14.286E-6  0.1       
 21.429E-9  21.429E-6  21.429E-6  21.429E-6  21.429E-6  21.429E-6  21.429E-6  21.43E-18  229.6E-15  2.551E-12  2.55E-12   255.1E-15  21.429E-6  21.429E-6  0.1       
 28.573E-9  28.573E-6  28.573E-6  28.572E-6  28.572E-6  28.573E-6  28.572E-6  28.57E-18  408.2E-15  4.337E-12  4.337E-12  433.7E-15  28.572E-6  28.572E-6  0.1       
 971.97E-9  971.97E-6  971.97E-6  971.49E-6  971.49E-6  971.92E-6  971.49E-6  972.E-18   472.3E-12  4.7216E-9  4.7216E-9  472.2E-12  971.49E-6  971.49E-6  0.1       
 3.9585E-6  0.0039585  0.0039585  0.0039507  0.0039507  0.0039578  0.0039507  3.959E-15  7.8337E-9  78.224E-9  78.224E-9  7.8224E-9  0.0039507  0.0039507  0.1       
 12.282E-6  0.012282   0.012282   0.012207   0.012207   0.012274   0.012207   12.28E-15  75.383E-9  750.62E-9  750.62E-9  75.062E-9  0.012207   0.012207   0.1       
 30.022E-6  0.030022   0.030022   0.029576   0.029576   0.029977   0.029576   30.02E-15  450.15E-9  4.4568E-6  4.4568E-6  445.68E-9  0.029576   0.029576   0.1       
 62.818E-6  0.062818   0.062818   0.060889   0.060889   0.062621   0.060889   62.82E-15  1.9686E-6  19.291E-6  19.291E-6  1.9291E-6  0.060889   0.060889   0.1       
 116.82E-6  0.11682    0.11682    0.11027    0.11027    0.11614    0.11027    116.8E-15  6.7958E-6  65.51E-6   65.51E-6   6.551E-6   0.11027    0.11027    0.1       
 199.18E-6  0.19918    0.19918    0.18065    0.18065    0.19721    0.18065    199.2E-15  19.7E-6    185.31E-6  185.31E-6  18.531E-6  0.18065    0.18065    0.1       
 281.54E-6  0.28154    0.28154    0.24546    0.24546    0.27762    0.24546    281.5E-15  39.253E-6  360.79E-6  360.79E-6  36.079E-6  0.24546    0.24546    0.1       
 435.81E-6  0.43581    0.43581    0.35353    0.35353    0.42645    0.35353    435.8E-15  93.559E-6  822.79E-6  822.79E-6  82.279E-6  0.35353    0.35353    0.1       
 590.07E-6  0.59007    0.59007    0.44611    0.44611    0.573      0.44611    590.1E-15  170.65E-6  0.0014396  0.0014396  143.96E-6  0.44611    0.44611    0.1       
 858.92E-6  0.85892    0.85892    0.57738    0.57738    0.82309    0.57738    858.9E-15  358.32E-6  0.0028154  0.0028154  281.54E-6  0.57738    0.57738    0.1       
 0.001      1.         1.         0.63307    0.63307    0.95165    0.63307    1.E-12     483.51E-6  0.0036693  0.0036693  366.93E-6  0.63307    0.63307    0.1       
 0.0010085  1.         1.         0.62774    0.62774    0.95084    0.62774    1.E-12     491.59E-6  0.0037226  0.0037226  372.26E-6  0.62774    0.62774    0.1       
 0.001017   1.         1.         0.62243    0.62243    0.95003    0.62243    1.E-12     499.67E-6  0.0037757  0.0037757  377.57E-6  0.62243    0.62243    0.1       
 0.0010753  1.         1.         0.58715    0.58715    0.94451    0.58715    1.E-12     554.93E-6  0.0041285  0.0041285  412.85E-6  0.58715    0.58715    0.1       
 0.001217   1.         1.         0.50947    0.50947    0.93122    0.50947    1.E-12     687.78E-6  0.0049053  0.0049053  490.53E-6  0.50947    0.50947    0.1       
 0.0016162  1.         1.         0.33992    0.33992    0.89477    0.33992    1.E-12     0.0010523  0.0066008  0.0066008  660.08E-6  0.33992    0.33992    0.1       
 0.0020154  1.         1.         0.2268     0.2268     0.85975    0.2268     1.E-12     0.0014025  0.007732   0.007732   773.2E-6   0.2268     0.2268     0.1       
 0.0024147  1.         1.         0.15132    0.15132    0.8261     0.15132    1.E-12     0.001739   0.0084868  0.0084868  848.68E-6  0.15132    0.15132    0.1       
 0.0028139  1.         1.         0.10096    0.10096    0.79376    0.10096    1.E-12     0.0020624  0.0089904  0.0089904  899.04E-6  0.10096    0.10096    0.1       
 0.0032131  1.         1.         0.067362   0.067362   0.76269    0.067362   1.E-12     0.0023731  0.0093264  0.0093264  932.64E-6  0.067362   0.067362   0.1       
 0.0036124  1.         1.         0.044944   0.044944   0.73284    0.044944   1.E-12     0.0026716  0.0095506  0.0095506  955.06E-6  0.044944   0.044944   0.1       
 0.0040116  1.         1.         0.029987   0.029987   0.70416    0.029987   1.E-12     0.0029584  0.0097001  0.0097001  970.01E-6  0.029987   0.029987   0.1       
 0.0044108  1.         1.         0.020007   0.020007   0.67659    0.020007   1.E-12     0.0032341  0.0097999  0.0097999  979.99E-6  0.020007   0.020007   0.1       
 0.00481    1.         1.         0.013349   0.013349   0.65011    0.013349   1.E-12     0.0034989  0.0098665  0.0098665  986.65E-6  0.013349   0.013349   0.1       
 0.0052093  1.         1.         0.0089064  0.0089066  0.62467    0.0089064  1.E-12     0.0037533  0.0099109  0.0099109  991.09E-6  0.0089064  0.0089064  0.1       
 0.0056085  1.         1.         0.0059424  0.0059426  0.60022    0.0059424  1.E-12     0.0039978  0.0099406  0.0099406  994.06E-6  0.0059424  0.0059424  0.1       
 0.0060077  1.         1.         0.0039648  0.003965   0.57672    0.0039648  1.E-12     0.0042328  0.0099603  0.0099603  996.03E-6  0.0039648  0.0039648  0.1       
 0.006407   1.         1.         0.0026453  0.0026455  0.55415    0.0026453  1.E-12     0.0044585  0.0099735  0.0099735  997.35E-6  0.0026453  0.0026453  0.1       
 0.0068062  1.         1.         0.001765   0.0017652  0.53246    0.001765   1.E-12     0.0046754  0.0099823  0.0099823  998.23E-6  0.001765   0.001765   0.1       
 0.0072054  1.         1.         0.0011776  0.0011778  0.51162    0.0011776  1.E-12     0.0048838  0.0099882  0.0099882  998.82E-6  0.0011776  0.0011776  0.1       
 0.0076046  1.         1.         785.68E-6  785.88E-6  0.49159    785.68E-6  1.E-12     0.0050841  0.0099921  0.0099921  999.21E-6  785.68E-6  785.68E-6  0.1       
 0.0080039  1.         1.         524.21E-6  524.41E-6  0.47235    524.21E-6  1.E-12     0.0052765  0.0099948  0.0099948  999.48E-6  524.21E-6  524.21E-6  0.1       
 0.0084031  1.         1.         349.75E-6  349.95E-6  0.45386    349.75E-6  1.E-12     0.0054614  0.0099965  0.0099965  999.65E-6  349.75E-6  349.75E-6  0.1       
 0.0088023  1.         1.         233.35E-6  233.56E-6  0.4361     233.35E-6  1.E-12     0.005639   0.0099977  0.0099977  999.77E-6  233.35E-6  233.35E-6  0.1       
 0.0089354  1.         1.         204.24E-6  204.43E-6  0.43033    204.24E-6  1.E-12     0.0056967  0.009998   0.009998   999.8E-6   204.24E-6  204.24E-6  0.1       
 0.0092903  1.         1.         142.68E-6  142.88E-6  0.41533    142.68E-6  1.E-12     0.0058467  0.0099986  0.0099986  999.86E-6  142.68E-6  142.68E-6  0.1       
 0.0094086  1.         1.         126.74E-6  126.94E-6  0.41044    126.74E-6  1.E-12     0.0058956  0.0099987  0.0099987  999.87E-6  126.74E-6  126.74E-6  0.1       
 0.0097043  1.         1.         94.091E-6  94.297E-6  0.39848    94.091E-6  1.E-12     0.0060152  0.0099991  0.0099991  999.91E-6  94.091E-6  94.091E-6  0.1       
 0.0098029  1.         1.         85.251E-6  85.459E-6  0.39457    85.251E-6  1.E-12     0.0060543  0.0099991  0.0099991  999.91E-6  85.251E-6  85.251E-6  0.1       
 0.01       1.         1.         69.951E-6  70.148E-6  0.38687    69.951E-6  1.E-12     0.0061313  0.0099993  0.0099993  999.93E-6  69.951E-6  69.951E-6  0.1       
Gnucap   System status
iterations: op=0, dc=3, tran=195, fourier=0, total=252
transient timesteps: accepted=46, rejected=8, total=54
nodes: user=6, subckt=0, model=2, total=8
dctran density=59.4%, ac density=59.4%
