#           v(n1)      v(na)      v(nb)      v(nbr)     v(nint)    v(nm)      i(Ra)      i(Rint)    i(Rb)      i(Rbr)     i(Rm)     
 0.         0.         0.         0.         0.         0.         0.         0.         0.         0.         0.         0.        
.model mycoil_br coil_br ( inductance=100m)
.model mycoil_int coil_idt ( inductance=1)
.model mycoil_mag coil_mag ( inductance=1)
lint ( nint 0 )  mycoil_int 
lbr ( nbr 0 )  mycoil_br 
lm ( nm 0 )  mycoil_mag 
V1 ( n1 0 ) pulse iv= 0. pv= 1. delay= 0. rise= 0.001 fall=NA( 0.) width=NA( Inf) period=NA( Inf)
Ra ( n1 na )  1.K
Rint ( n1 nint )  100.
Rb ( n1 nb )  100.
Rbr ( n1 nbr )  100.
Rm ( n1 nm )  1.K
* builtin coil for comparison 
Lb ( nb 0 )  0.1
#Time       v(n1)      v(na)      v(nb)      v(nbr)     v(nint)    v(nm)      i(Ra)      i(Rint)    i(Rb)      i(Rbr)     i(Rm)      v(lm)      v(Lb)      inductance(Lb)
 0.         0.         0.         0.         0.         0.         0.         0.         0.         0.         0.         0.         0.         0.         0.1       
 100.E-6    0.1        0.1        0.090909   0.090909   0.099502   0.090909   100.E-15   4.9751E-6  90.909E-6  90.909E-6  9.0909E-6  0.090909   0.090909   0.1       
 200.E-6    0.2        0.2        0.17749    0.17749    0.19801    0.17749    200.E-15   19.851E-6  225.11E-6  225.11E-6  22.511E-6  0.17749    0.17749    0.1       
 300.E-6    0.3        0.3        0.25582    0.25582    0.29555    0.25582    300.E-15   44.529E-6  441.76E-6  441.76E-6  44.176E-6  0.25582    0.25582    0.1       
 400.E-6    0.4        0.4        0.3267     0.3267     0.39211    0.3267     400.E-15   78.912E-6  733.03E-6  733.03E-6  73.303E-6  0.3267     0.3267     0.1       
 595.92E-6  0.59592    0.59592    0.44684    0.44684    0.57852    0.44684    595.9E-15  173.99E-6  0.0014908  0.0014908  149.08E-6  0.44684    0.44684    0.1       
 791.84E-6  0.79184    0.79184    0.54555    0.54555    0.76131    0.54555    791.8E-15  305.24E-6  0.0024629  0.0024629  246.29E-6  0.54555    0.54555    0.1       
 0.001      1.         1.         0.63123    0.63123    0.95165    0.63123    1.E-12     483.53E-6  0.0036877  0.0036877  368.77E-6  0.63123    0.63123    0.1       
 0.0010421  1.         1.         0.60575    0.60575    0.94765    0.60575    1.E-12     523.47E-6  0.0039425  0.0039425  394.25E-6  0.60575    0.60575    0.1       
 0.001075   1.         1.         0.58613    0.58613    0.94454    0.58613    1.E-12     554.63E-6  0.0041387  0.0041387  413.87E-6  0.58613    0.58613    0.1       
 0.0011383  1.         1.         0.55016    0.55016    0.93858    0.55016    1.E-12     614.23E-6  0.0044984  0.0044984  449.84E-6  0.55016    0.55016    0.1       
 0.0011859  1.         1.         0.52456    0.52456    0.93412    0.52456    1.E-12     658.84E-6  0.0047544  0.0047544  475.44E-6  0.52456    0.52456    0.1       
 0.0012336  1.         1.         0.50015    0.50015    0.92968    0.50015    1.E-12     703.24E-6  0.0049985  0.0049985  499.85E-6  0.50015    0.50015    0.1       
 0.001651   1.         1.         0.32742    0.32742    0.89166    0.32742    1.E-12     0.0010834  0.0067258  0.0067258  672.58E-6  0.32742    0.32742    0.1       
 0.0020685  1.         1.         0.21434    0.21434    0.8552     0.21434    1.E-12     0.001448   0.0078566  0.0078566  785.66E-6  0.21434    0.21434    0.1       
 0.0024859  1.         1.         0.14031    0.14031    0.82023    0.14031    1.E-12     0.0017977  0.0085969  0.0085969  859.69E-6  0.14031    0.14031    0.1       
 0.0029034  1.         1.         0.091855   0.091855   0.78669    0.091855   1.E-12     0.0021331  0.0090814  0.0090814  908.14E-6  0.091855   0.091855   0.1       
 0.0033208  1.         1.         0.060132   0.060132   0.75452    0.060132   1.E-12     0.0024548  0.0093987  0.0093987  939.87E-6  0.060132   0.060132   0.1       
 0.0037383  1.         1.         0.039364   0.039365   0.72367    0.039364   1.E-12     0.0027633  0.0096064  0.0096064  960.64E-6  0.039364   0.039364   0.1       
 0.0041557  1.         1.         0.025769   0.02577    0.69407    0.025769   1.E-12     0.0030592  0.0097423  0.0097423  974.23E-6  0.025769   0.025769   0.1       
 0.0045732  1.         1.         0.01687    0.01687    0.66569    0.01687    1.E-12     0.0033431  0.0098313  0.0098313  983.13E-6  0.01687    0.01687    0.1       
 0.0049906  1.         1.         0.011043   0.011044   0.63847    0.011043   1.E-12     0.0036153  0.0098896  0.0098896  988.96E-6  0.011043   0.011043   0.1       
 0.0054081  1.         1.         0.0072295  0.0072296  0.61236    0.0072295  1.E-12     0.0038764  0.0099277  0.0099277  992.77E-6  0.0072295  0.0072295  0.1       
 0.0058255  1.         1.         0.0047327  0.0047329  0.58732    0.0047327  1.E-12     0.0041268  0.0099527  0.0099527  995.27E-6  0.0047327  0.0047327  0.1       
 0.006243   1.         1.         0.0030982  0.0030984  0.56331    0.0030982  1.E-12     0.0043669  0.009969   0.009969   996.9E-6   0.0030982  0.0030982  0.1       
 0.0066604  1.         1.         0.0020282  0.0020284  0.54027    0.0020282  1.E-12     0.0045973  0.0099797  0.0099797  997.97E-6  0.0020282  0.0020282  0.1       
 0.0070779  1.         1.         0.0013277  0.0013279  0.51818    0.0013277  1.E-12     0.0048182  0.0099867  0.0099867  998.67E-6  0.0013277  0.0013277  0.1       
 0.0074953  1.         1.         869.17E-6  869.37E-6  0.49699    869.17E-6  1.E-12     0.0050301  0.0099913  0.0099913  999.13E-6  869.17E-6  869.17E-6  0.1       
 0.0079128  1.         1.         568.99E-6  569.19E-6  0.47667    568.99E-6  1.E-12     0.0052333  0.0099943  0.0099943  999.43E-6  568.99E-6  568.99E-6  0.1       
 0.0083302  1.         1.         372.48E-6  372.68E-6  0.45718    372.48E-6  1.E-12     0.0054282  0.0099963  0.0099963  999.63E-6  372.48E-6  372.48E-6  0.1       
 0.0087477  1.         1.         243.84E-6  244.04E-6  0.43848    243.84E-6  1.E-12     0.0056152  0.0099976  0.0099976  999.76E-6  243.84E-6  243.84E-6  0.1       
 0.0091651  1.         1.         159.62E-6  159.82E-6  0.42055    159.62E-6  1.E-12     0.0057945  0.0099984  0.0099984  999.84E-6  159.62E-6  159.62E-6  0.1       
 0.0093043  1.         1.         138.86E-6  139.07E-6  0.41474    138.86E-6  1.E-12     0.0058526  0.0099986  0.0099986  999.86E-6  138.86E-6  138.86E-6  0.1       
 0.0096521  1.         1.         97.708E-6  97.905E-6  0.40056    97.708E-6  1.E-12     0.0059944  0.009999   0.009999   999.9E-6   97.708E-6  97.708E-6  0.1       
 0.0097681  1.         1.         86.998E-6  87.178E-6  0.39594    86.998E-6  1.E-12     0.0060406  0.0099991  0.0099991  999.91E-6  86.998E-6  86.998E-6  0.1       
 0.01       1.         1.         68.918E-6  69.118E-6  0.38686    68.918E-6  1.E-12     0.0061314  0.0099993  0.0099993  999.93E-6  68.918E-6  68.918E-6  0.1       
Gnucap   System status
iterations: op=0, dc=3, tran=147, fourier=0, total=190
transient timesteps: accepted=36, rejected=4, total=40
nodes: user=6, subckt=0, model=2, total=8
dctran density=59.4%, ac density=59.4%
