#           v(n1)      v(na)      v(nb)      v(nbr)     v(nint)    v(nm)      i(Ra)      i(Rint)    i(Rb)      i(Rbr)     i(Rm)     
 0.         0.         0.         0.         0.         0.         0.         0.         0.         0.         0.         0.        
.model mycoil_br coil_br ( inductance=100m)
.model mycoil_int coil_idt ( inductance=1)
.model mycoil_mag coil_mag ( inductance=1)
lint ( nint 0 )  mycoil_int 
lbr ( nbr 0 )  mycoil_br 
lm ( nm 0 )  mycoil_mag 
V1 ( n1 0 ) pulse iv= 0. pv= 1. delay= 0. rise= 0.001 fall=NA( 0.) width=NA( Inf) period=NA( Inf)
Ra ( n1 na )  1.K
Rint ( n1 nint )  100.
Rb ( n1 nb )  100.
Rbr ( n1 nbr )  100.
Rm ( n1 nm )  1.K
* builtin coil for comparison 
Lb ( nb 0 )  0.1
#Time       v(n1)      v(na)      v(nb)      v(nbr)     v(nint)    v(nm)      i(Ra)      i(Rint)    i(Rb)      i(Rbr)     i(Rm)      v(lm)      v(Lb)      inductance(Lb)
 0.         0.         0.         0.         0.         0.         0.         0.         0.         0.         0.         0.         0.         0.         0.1       
 100.u      0.1        0.1        0.090909   0.090909   0.099502   0.090909   100.f      4.9751u    90.909u    90.909u    9.0909u    0.090909   0.090909   0.1       
 200.u      0.2        0.2        0.17749    0.17749    0.19801    0.17749    200.f      19.851u    225.11u    225.11u    22.511u    0.17749    0.17749    0.1       
 300.u      0.3        0.3        0.25582    0.25582    0.29555    0.25582    300.f      44.529u    441.76u    441.76u    44.176u    0.25582    0.25582    0.1       
 400.u      0.4        0.4        0.3267     0.3267     0.39211    0.3267     400.f      78.912u    733.03u    733.03u    73.303u    0.3267     0.3267     0.1       
 500.u      0.5        0.5        0.39082    0.39082    0.48771    0.39082    500.f      122.9u     0.0010918  0.0010918  109.18u    0.39082    0.39082    0.1       
 731.71u    0.73171    0.73171    0.51732    0.51732    0.70559    0.51732    731.71f    261.15u    0.0021439  0.0021439  214.39u    0.51732    0.51732    0.1       
 0.001      1.         1.         0.6315     0.6315     0.95165    0.6315     1.p        483.46u    0.003685   0.003685   368.5u     0.6315     0.6315     0.1       
 0.0011837  1.         1.         0.52527    0.52527    0.93433    0.52527    1.p        656.67u    0.0047473  0.0047473  474.73u    0.52527    0.52527    0.1       
 0.0013282  1.         1.         0.45447    0.45447    0.92093    0.45447    1.p        790.74u    0.0054553  0.0054553  545.53u    0.45447    0.45447    0.1       
 0.0014727  1.         1.         0.39321    0.39321    0.90771    0.39321    1.p        922.88u    0.0060679  0.0060679  606.79u    0.39321    0.39321    0.1       
 0.0018435  1.         1.         0.27022    0.27022    0.87467    0.27022    1.p        0.0012533  0.0072978  0.0072977  729.78u    0.27022    0.27022    0.1       
 0.0022142  1.         1.         0.18571    0.18571    0.84283    0.18571    1.p        0.0015717  0.0081429  0.0081429  814.29u    0.18571    0.18571    0.1       
 0.002585   1.         1.         0.12762    0.12762    0.81215    0.12762    1.p        0.0018785  0.0087238  0.0087238  872.38u    0.12762    0.12762    0.1       
 0.0029557  1.         1.         0.087706   0.087706   0.78259    0.087706   1.p        0.0021741  0.0091229  0.0091229  912.29u    0.087706   0.087706   0.1       
 0.0033265  1.         1.         0.060274   0.060274   0.7541     0.060274   1.p        0.002459   0.0093973  0.0093973  939.73u    0.060274   0.060274   0.1       
 0.0036972  1.         1.         0.041422   0.041422   0.72665    0.041422   1.p        0.0027335  0.0095858  0.0095858  958.58u    0.041422   0.041422   0.1       
 0.004068   1.         1.         0.028467   0.028467   0.7002     0.028467   1.p        0.002998   0.0097153  0.0097153  971.53u    0.028467   0.028467   0.1       
 0.0044387  1.         1.         0.019563   0.019563   0.67472    0.019563   1.p        0.0032528  0.0098044  0.0098044  980.44u    0.019563   0.019563   0.1       
 0.0048095  1.         1.         0.013444   0.013444   0.65016    0.013444   1.p        0.0034984  0.0098656  0.0098656  986.56u    0.013444   0.013444   0.1       
 0.0051802  1.         1.         0.0092393  0.0092395  0.62649    0.0092393  1.p        0.0037351  0.0099076  0.0099076  990.76u    0.0092393  0.0092393  0.1       
 0.005551   1.         1.         0.0063495  0.0063497  0.60369    0.0063495  1.p        0.0039631  0.0099365  0.0099365  993.65u    0.0063495  0.0063495  0.1       
 0.0059217  1.         1.         0.0043636  0.0043638  0.58171    0.0043636  1.p        0.0041829  0.0099564  0.0099564  995.64u    0.0043636  0.0043636  0.1       
 0.0062925  1.         1.         0.0029988  0.002999   0.56054    0.0029988  1.p        0.0043946  0.00997    0.00997    997.u      0.0029988  0.0029988  0.1       
 0.0066632  1.         1.         0.0020608  0.002061   0.54013    0.0020608  1.p        0.0045987  0.0099794  0.0099794  997.94u    0.0020608  0.0020608  0.1       
 0.007034   1.         1.         0.0014163  0.0014165  0.52047    0.0014163  1.p        0.0047953  0.0099858  0.0099858  998.58u    0.0014163  0.0014163  0.1       
 0.0074047  1.         1.         973.3u     973.5u     0.50153    973.3u     1.p        0.0049847  0.0099903  0.0099903  999.03u    973.3u     973.3u     0.1       
 0.0077755  1.         1.         668.88u    669.08u    0.48327    668.88u    1.p        0.0051673  0.0099933  0.0099933  999.33u    668.88u    668.88u    0.1       
 0.0081462  1.         1.         459.67u    459.87u    0.46568    459.67u    1.p        0.0053432  0.0099954  0.0099954  999.54u    459.67u    459.67u    0.1       
 0.008517   1.         1.         315.9u     316.1u     0.44873    315.9u     1.p        0.0055127  0.0099968  0.0099968  999.68u    315.9u     315.9u     0.1       
 0.0088877  1.         1.         217.09u    217.3u     0.4324     217.09u    1.p        0.005676   0.0099978  0.0099978  999.78u    217.09u    217.09u    0.1       
 0.0090113  1.         1.         191.82u    192.03u    0.42708    191.82u    1.p        0.0057292  0.0099981  0.0099981  999.81u    191.82u    191.82u    0.1       
 0.0093409  1.         1.         137.55u    137.75u    0.41324    137.55u    1.p        0.0058676  0.0099986  0.0099986  999.86u    137.55u    137.55u    0.1       
 0.0094507  1.         1.         123.23u    123.43u    0.40872    123.23u    1.p        0.0059128  0.0099988  0.0099988  999.88u    123.23u    123.23u    0.1       
 0.0097254  1.         1.         93.469u    93.666u    0.39765    93.469u    1.p        0.0060235  0.0099991  0.0099991  999.91u    93.469u    93.469u    0.1       
 0.0098169  1.         1.         85.287u    85.479u    0.39403    85.287u    1.p        0.0060597  0.0099991  0.0099991  999.91u    85.287u    85.287u    0.1       
 0.01       1.         1.         70.981u    71.186u    0.38688    70.981u    1.p        0.0061312  0.0099993  0.0099993  999.93u    70.981u    70.981u    0.1       
