#           v(n1)      v(na)      v(nb)      v(nbr)     v(nint)    v(nm)      i(Ra)      i(Rint)    i(Rb)      i(Rbr)     i(Rm)     
 0.         0.         0.         0.         0.         0.         0.         0.         0.         0.         0.         0.        
.model mycoil_br coil_br ( inductance=100m)
.model mycoil_int coil_idt ( inductance=1)
.model mycoil_mag coil_mag ( inductance=1)
lint ( nint 0 )  mycoil_int 
lbr ( nbr 0 )  mycoil_br 
lm ( nm 0 )  mycoil_mag 
V1 ( n1 0 ) pulse iv= 0. pv= 1. delay= 0. rise= 0.001 fall=NA( 0.) width=NA( Inf) period=NA( Inf)
Ra ( n1 na )  1.K
Rint ( n1 nint )  100.
Rb ( n1 nb )  100.
Rbr ( n1 nbr )  100.
Rm ( n1 nm )  1.K
* builtin coil for comparison 
Lb ( nb 0 )  0.1
#Time       v(n1)      v(na)      v(nb)      v(nbr)     v(nint)    v(nm)      i(Ra)      i(Rint)    i(Rb)      i(Rbr)     i(Rm)      v(lm)      v(Lb)      inductance(Lb)
 0.         0.         0.         0.         0.         0.         0.         0.         0.         0.         0.         0.         0.         0.         0.1       
 6.43E-9    6.43E-6    6.43E-6    6.43E-6    6.43E-6    6.43E-6    6.43E-6    6.43E-18   20.68E-15  413.5E-15  413.4E-15  41.35E-15  6.43E-6    6.43E-6    0.1       
 12.86E-9   12.86E-6   12.86E-6   12.86E-6   12.86E-6   12.86E-6   12.86E-6   12.86E-18  82.7E-15   1.034E-12  1.034E-12  103.4E-15  12.86E-6   12.86E-6   0.1       
 19.29E-9   19.29E-6   19.29E-6   19.29E-6   19.29E-6   19.29E-6   19.29E-6   19.29E-18  186.1E-15  2.067E-12  2.068E-12  206.7E-15  19.29E-6   19.29E-6   0.1       
 25.72E-9   25.72E-6   25.72E-6   25.72E-6   25.72E-6   25.72E-6   25.72E-6   25.72E-18  330.8E-15  3.514E-12  3.515E-12  351.5E-15  25.72E-6   25.72E-6   0.1       
 969.2E-9   969.2E-6   969.2E-6   968.73E-6  968.73E-6  969.16E-6  968.73E-6  969.2E-18  469.7E-12  4.6948E-9  4.6963E-9  469.5E-12  968.73E-6  968.73E-6  0.1       
 3.9495E-6  0.0039495  0.0039495  0.0039418  0.0039418  0.0039488  0.0039418  3.95E-15   7.7982E-9  77.869E-9  77.894E-9  7.7869E-9  0.0039418  0.0039418  0.1       
 12.259E-6  0.012259   0.012259   0.012184   0.012184   0.012251   0.012184   12.26E-15  75.104E-9  747.84E-9  748.07E-9  74.784E-9  0.012184   0.012184   0.1       
 29.968E-6  0.029968   0.029968   0.029523   0.029523   0.029923   0.029523   29.97E-15  448.53E-9  4.4408E-6  4.4422E-6  444.08E-9  0.029523   0.029523   0.1       
 62.764E-6  0.062764   0.062764   0.060838   0.060837   0.062567   0.060838   62.76E-15  1.9652E-6  19.258E-6  19.264E-6  1.9258E-6  0.060838   0.060838   0.1       
 116.77E-6  0.11677    0.11677    0.11023    0.11022    0.11609    0.11023    116.8E-15  6.7896E-6  65.451E-6  65.471E-6  6.5451E-6  0.11023    0.11023    0.1       
 199.13E-6  0.19913    0.19913    0.18061    0.1806     0.19716    0.18061    199.1E-15  19.689E-6  185.22E-6  185.27E-6  18.522E-6  0.18061    0.18061    0.1       
 281.49E-6  0.28149    0.28149    0.24543    0.24541    0.27757    0.24543    281.5E-15  39.239E-6  360.66E-6  360.76E-6  36.066E-6  0.24543    0.24543    0.1       
 435.75E-6  0.43575    0.43575    0.35349    0.35347    0.4264     0.35349    435.8E-15  93.536E-6  822.61E-6  822.84E-6  82.261E-6  0.35349    0.35349    0.1       
 590.02E-6  0.59002    0.59002    0.44608    0.44604    0.57295    0.44608    590.E-15   170.62E-6  0.0014393  0.0014397  143.93E-6  0.44608    0.44608    0.1       
 858.87E-6  0.85887    0.85887    0.57736    0.57729    0.82304    0.57736    858.9E-15  358.28E-6  0.0028151  0.0028158  281.51E-6  0.57736    0.57736    0.1       
 0.001      1.         1.         0.63307    0.63299    0.95165    0.63307    1.E-12     483.51E-6  0.0036693  0.0036701  366.93E-6  0.63307    0.63307    0.1       
 0.0010057  1.         1.         0.62948    0.62951    0.95111    0.62948    1.E-12     488.95E-6  0.0037052  0.0037049  370.52E-6  0.62948    0.62948    0.1       
 0.0010114  1.         1.         0.62589    0.62592    0.95056    0.62589    1.E-12     494.38E-6  0.0037411  0.0037408  374.11E-6  0.62589    0.62589    0.1       
 0.0010747  1.         1.         0.58749    0.58752    0.94456    0.58749    1.E-12     554.36E-6  0.0041251  0.0041248  412.51E-6  0.58749    0.58749    0.1       
 0.001138   1.         1.         0.55144    0.55147    0.9386     0.55144    1.E-12     613.96E-6  0.0044856  0.0044853  448.56E-6  0.55144    0.55144    0.1       
 0.00156    1.         1.         0.35928    0.3593     0.89981    0.35928    1.E-12     0.0010019  0.0064072  0.006407   640.72E-6  0.35928    0.35928    0.1       
 0.001982   1.         1.         0.23408    0.23409    0.86263    0.23408    1.E-12     0.0013737  0.0076592  0.0076591  765.92E-6  0.23408    0.23408    0.1       
 0.002404   1.         1.         0.15251    0.15252    0.82698    0.15251    1.E-12     0.0017302  0.0084749  0.0084748  847.49E-6  0.15251    0.15251    0.1       
 0.002826   1.         1.         0.099365   0.09937    0.7928     0.099365   1.E-12     0.002072   0.0090064  0.0090063  900.64E-6  0.099365   0.099365   0.1       
 0.003248   1.         1.         0.064739   0.064742   0.76003    0.064739   1.E-12     0.0023997  0.0093526  0.0093526  935.26E-6  0.064739   0.064739   0.1       
 0.00367    1.         1.         0.042179   0.042182   0.72862    0.042179   1.E-12     0.0027138  0.0095782  0.0095782  957.82E-6  0.042179   0.042179   0.1       
 0.004092   1.         1.         0.027481   0.027483   0.69851    0.027481   1.E-12     0.0030149  0.0097252  0.0097252  972.52E-6  0.027481   0.027481   0.1       
 0.004514   1.         1.         0.017905   0.017906   0.66964    0.017905   1.E-12     0.0033036  0.009821   0.0098209  982.1E-6   0.017905   0.017905   0.1       
 0.004936   1.         1.         0.011665   0.011666   0.64197    0.011665   1.E-12     0.0035803  0.0098833  0.0098833  988.33E-6  0.011665   0.011665   0.1       
 0.005358   1.         1.         0.0076003  0.0076009  0.61544    0.0076003  1.E-12     0.0038456  0.009924   0.009924   992.4E-6   0.0076003  0.0076003  0.1       
 0.00578    1.         1.         0.0049518  0.0049523  0.59       0.0049518  1.E-12     0.0041     0.0099505  0.0099505  995.05E-6  0.0049518  0.0049518  0.1       
 0.006202   1.         1.         0.0032263  0.0032266  0.56562    0.0032263  1.E-12     0.0043438  0.0099677  0.0099677  996.77E-6  0.0032263  0.0032263  0.1       
 0.006624   1.         1.         0.002102   0.0021023  0.54224    0.002102   1.E-12     0.0045776  0.009979   0.009979   997.9E-6   0.002102   0.002102   0.1       
 0.007046   1.         1.         0.0013695  0.0013698  0.51983    0.0013695  1.E-12     0.0048017  0.0099863  0.0099863  998.63E-6  0.0013695  0.0013695  0.1       
 0.007468   1.         1.         892.27E-6  892.52E-6  0.49835    892.27E-6  1.E-12     0.0050165  0.0099911  0.0099911  999.11E-6  892.27E-6  892.27E-6  0.1       
 0.00789    1.         1.         581.34E-6  581.57E-6  0.47775    581.34E-6  1.E-12     0.0052225  0.0099942  0.0099942  999.42E-6  581.34E-6  581.34E-6  0.1       
 0.008312   1.         1.         378.76E-6  378.97E-6  0.45801    378.76E-6  1.E-12     0.0054199  0.0099962  0.0099962  999.62E-6  378.76E-6  378.76E-6  0.1       
 0.008734   1.         1.         246.77E-6  246.98E-6  0.43908    246.77E-6  1.E-12     0.0056092  0.0099975  0.0099975  999.75E-6  246.77E-6  246.77E-6  0.1       
 0.009156   1.         1.         160.78E-6  160.99E-6  0.42093    160.78E-6  1.E-12     0.0057907  0.0099984  0.0099984  999.84E-6  160.78E-6  160.78E-6  0.1       
 0.0092967  1.         1.         139.65E-6  139.84E-6  0.41505    139.65E-6  1.E-12     0.0058495  0.0099986  0.0099986  999.86E-6  139.65E-6  139.65E-6  0.1       
 0.0096483  1.         1.         97.88E-6   98.083E-6  0.40071    97.88E-6   1.E-12     0.0059929  0.009999   0.009999   999.9E-6   97.88E-6   97.88E-6   0.1       
 0.0097656  1.         1.         87.041E-6  87.236E-6  0.39604    87.041E-6  1.E-12     0.0060396  0.0099991  0.0099991  999.91E-6  87.041E-6  87.041E-6  0.1       
 0.01       1.         1.         68.775E-6  68.987E-6  0.38686    68.775E-6  1.E-12     0.0061314  0.0099993  0.0099993  999.93E-6  68.775E-6  68.775E-6  0.1       
Gnucap   System status
iterations: op=0, dc=3, tran=186, fourier=0, total=240
transient timesteps: accepted=44, rejected=7, total=51
nodes: user=6, subckt=0, model=2, total=8
dctran density=59.4%, ac density=59.4%
