#           v(n1)      v(nb)      v(nl)      i(Rb)      i(Rm)     
 0.         0.         0.         0.         0.         0.        
.model mycoil coil_auto ( inductance=100m)
ll ( nl 0 )  mycoil 
V1 ( n1 0 ) pulse iv= 0. pv= 1. delay= 0. rise= 0.001 fall=NA( 0.) width=NA( Inf) period=NA( Inf)
Rb ( n1 nb )  1.K
Rm ( n1 nl )  1.K
* builtin coil for comparison 
Lb ( nb 0 )  0.1
#Time       v(n1)      v(nb)      v(nl)      i(Rb)      i(Rm)      v(Lb)      inductance(Lb)
 0.         0.         0.         0.         0.         0.         0.         0.1       
 100.E-6    0.1        0.063273   0.063273   36.727E-6  36.727E-6  0.063273   0.1       
 200.E-6    0.2        0.086615   0.086615   113.38E-6  113.38E-6  0.086615   0.1       
 300.E-6    0.3        0.095182   0.095182   204.82E-6  204.82E-6  0.095182   0.1       
 400.E-6    0.4        0.098394   0.098394   301.61E-6  301.61E-6  0.098394   0.1       
 500.E-6    0.5        0.099465   0.099465   400.54E-6  400.54E-6  0.099465   0.1       
 600.E-6    0.6        0.099822   0.099822   500.18E-6  500.18E-6  0.099822   0.1       
 700.E-6    0.7        0.099941   0.099941   600.06E-6  600.06E-6  0.099941   0.1       
 800.E-6    0.8        0.09998    0.09998    700.02E-6  700.02E-6  0.09998    0.1       
 900.E-6    0.9        0.099993   0.099993   800.01E-6  800.01E-6  0.099993   0.1       
 0.001      1.         0.099998   0.099998   900.E-6    900.E-6    0.099998   0.1       
 0.0011     1.         0.037065   0.037065   962.93E-6  962.93E-6  0.037065   0.1       
 0.0012     1.         0.013344   0.013344   986.66E-6  986.66E-6  0.013344   0.1       
 0.0013     1.         0.0044478  0.0044478  995.55E-6  995.55E-6  0.0044478  0.1       
 0.0014     1.         0.0014826  0.0014826  998.52E-6  998.52E-6  0.0014826  0.1       
 0.0015     1.         494.2E-6   494.2E-6   999.51E-6  999.51E-6  494.2E-6   0.1       
 0.0016     1.         164.73E-6  164.73E-6  999.84E-6  999.84E-6  164.73E-6  0.1       
 0.0017     1.         54.912E-6  54.912E-6  999.95E-6  999.95E-6  54.912E-6  0.1       
 0.0018     1.         18.304E-6  18.304E-6  999.98E-6  999.98E-6  18.304E-6  0.1       
 0.0019     1.         6.1013E-6  6.1013E-6  999.99E-6  999.99E-6  6.1013E-6  0.1       
 0.002      1.         2.0338E-6  2.0338E-6  0.001      0.001      2.0338E-6  0.1       
 0.0021     1.         677.92E-9  677.92E-9  0.001      0.001      677.92E-9  0.1       
 0.0022     1.         225.97E-9  225.97E-9  0.001      0.001      225.97E-9  0.1       
 0.0023     1.         75.325E-9  75.325E-9  0.001      0.001      75.325E-9  0.1       
 0.0024     1.         25.108E-9  25.108E-9  0.001      0.001      25.108E-9  0.1       
 0.0025     1.         8.3694E-9  8.3694E-9  0.001      0.001      8.3694E-9  0.1       
 0.0026     1.         2.7898E-9  2.7898E-9  0.001      0.001      2.7898E-9  0.1       
 0.0027     1.         929.9E-12  929.9E-12  0.001      0.001      929.9E-12  0.1       
 0.0028     1.         310.E-12   310.E-12   0.001      0.001      310.E-12   0.1       
 0.0029     1.         103.3E-12  103.3E-12  0.001      0.001      103.3E-12  0.1       
 0.003      1.         34.44E-12  34.42E-12  0.001      0.001      34.44E-12  0.1       
 0.0031     1.         11.48E-12  11.46E-12  0.001      0.001      11.48E-12  0.1       
 0.0032     1.         3.827E-12  3.805E-12  0.001      0.001      3.827E-12  0.1       
 0.0033     1.         1.275E-12  1.254E-12  0.001      0.001      1.275E-12  0.1       
 0.0034     1.         425.E-15   403.E-15   0.001      0.001      424.9E-15  0.1       
 0.0035     1.         141.E-15   120.E-15   0.001      0.001      141.3E-15  0.1       
 0.0036     1.         47.E-15    26.E-15    0.001      0.001      46.96E-15  0.1       
 0.0037     1.         47.E-15    26.E-15    0.001      0.001      46.96E-15  0.1       
 0.0038     1.         47.E-15    26.E-15    0.001      0.001      46.96E-15  0.1       
 0.0039     1.         47.E-15    26.E-15    0.001      0.001      46.96E-15  0.1       
 0.004      1.         47.E-15    26.E-15    0.001      0.001      46.96E-15  0.1       
 0.0041     1.         47.E-15    26.E-15    0.001      0.001      46.96E-15  0.1       
 0.0042     1.         47.E-15    26.E-15    0.001      0.001      46.96E-15  0.1       
 0.0043     1.         47.E-15    26.E-15    0.001      0.001      46.96E-15  0.1       
 0.0044     1.         47.E-15    26.E-15    0.001      0.001      46.96E-15  0.1       
 0.0045     1.         47.E-15    26.E-15    0.001      0.001      46.96E-15  0.1       
 0.0046     1.         47.E-15    26.E-15    0.001      0.001      46.96E-15  0.1       
 0.0047     1.         47.E-15    26.E-15    0.001      0.001      46.96E-15  0.1       
 0.0048     1.         47.E-15    26.E-15    0.001      0.001      46.96E-15  0.1       
 0.0049     1.         47.E-15    26.E-15    0.001      0.001      46.96E-15  0.1       
 0.005      1.         47.E-15    26.E-15    0.001      0.001      46.96E-15  0.1       
 0.0051     1.         47.E-15    26.E-15    0.001      0.001      46.96E-15  0.1       
 0.0052     1.         47.E-15    26.E-15    0.001      0.001      46.96E-15  0.1       
 0.0053     1.         47.E-15    26.E-15    0.001      0.001      46.96E-15  0.1       
 0.0054     1.         47.E-15    26.E-15    0.001      0.001      46.96E-15  0.1       
 0.0055     1.         47.E-15    26.E-15    0.001      0.001      46.96E-15  0.1       
 0.0056     1.         47.E-15    26.E-15    0.001      0.001      46.96E-15  0.1       
 0.0057     1.         47.E-15    26.E-15    0.001      0.001      46.96E-15  0.1       
 0.0058     1.         47.E-15    26.E-15    0.001      0.001      46.96E-15  0.1       
 0.0059     1.         47.E-15    26.E-15    0.001      0.001      46.96E-15  0.1       
 0.006      1.         47.E-15    26.E-15    0.001      0.001      46.96E-15  0.1       
 0.0061     1.         47.E-15    26.E-15    0.001      0.001      46.96E-15  0.1       
 0.0062     1.         47.E-15    26.E-15    0.001      0.001      46.96E-15  0.1       
 0.0063     1.         47.E-15    26.E-15    0.001      0.001      46.96E-15  0.1       
 0.0064     1.         47.E-15    26.E-15    0.001      0.001      46.96E-15  0.1       
 0.0065     1.         47.E-15    26.E-15    0.001      0.001      46.96E-15  0.1       
 0.0066     1.         47.E-15    26.E-15    0.001      0.001      46.96E-15  0.1       
 0.0067     1.         47.E-15    26.E-15    0.001      0.001      46.96E-15  0.1       
 0.0068     1.         47.E-15    26.E-15    0.001      0.001      46.96E-15  0.1       
 0.0069     1.         47.E-15    26.E-15    0.001      0.001      46.96E-15  0.1       
 0.007      1.         47.E-15    26.E-15    0.001      0.001      46.96E-15  0.1       
 0.0071     1.         47.E-15    26.E-15    0.001      0.001      46.96E-15  0.1       
 0.0072     1.         47.E-15    26.E-15    0.001      0.001      46.96E-15  0.1       
 0.0073     1.         47.E-15    26.E-15    0.001      0.001      46.96E-15  0.1       
 0.0074     1.         47.E-15    26.E-15    0.001      0.001      46.96E-15  0.1       
 0.0075     1.         47.E-15    26.E-15    0.001      0.001      46.96E-15  0.1       
 0.0076     1.         47.E-15    26.E-15    0.001      0.001      46.96E-15  0.1       
 0.0077     1.         47.E-15    26.E-15    0.001      0.001      46.96E-15  0.1       
 0.0078     1.         47.E-15    26.E-15    0.001      0.001      46.96E-15  0.1       
 0.0079     1.         47.E-15    26.E-15    0.001      0.001      46.96E-15  0.1       
 0.008      1.         47.E-15    26.E-15    0.001      0.001      46.96E-15  0.1       
 0.0081     1.         47.E-15    26.E-15    0.001      0.001      46.96E-15  0.1       
 0.0082     1.         47.E-15    26.E-15    0.001      0.001      46.96E-15  0.1       
 0.0083     1.         47.E-15    26.E-15    0.001      0.001      46.96E-15  0.1       
 0.0084     1.         47.E-15    26.E-15    0.001      0.001      46.96E-15  0.1       
 0.0085     1.         47.E-15    26.E-15    0.001      0.001      46.96E-15  0.1       
 0.0086     1.         47.E-15    26.E-15    0.001      0.001      46.96E-15  0.1       
 0.0087     1.         47.E-15    26.E-15    0.001      0.001      46.96E-15  0.1       
 0.0088     1.         47.E-15    26.E-15    0.001      0.001      46.96E-15  0.1       
 0.0089     1.         47.E-15    26.E-15    0.001      0.001      46.96E-15  0.1       
 0.009      1.         47.E-15    26.E-15    0.001      0.001      46.96E-15  0.1       
 0.0091     1.         47.E-15    26.E-15    0.001      0.001      46.96E-15  0.1       
 0.0092     1.         47.E-15    26.E-15    0.001      0.001      46.96E-15  0.1       
 0.0093     1.         47.E-15    26.E-15    0.001      0.001      46.96E-15  0.1       
 0.0094     1.         47.E-15    26.E-15    0.001      0.001      46.96E-15  0.1       
 0.0095     1.         47.E-15    26.E-15    0.001      0.001      46.96E-15  0.1       
 0.0096     1.         47.E-15    26.E-15    0.001      0.001      46.96E-15  0.1       
 0.0097     1.         47.E-15    26.E-15    0.001      0.001      46.96E-15  0.1       
 0.0098     1.         47.E-15    26.E-15    0.001      0.001      46.96E-15  0.1       
 0.0099     1.         47.E-15    26.E-15    0.001      0.001      46.96E-15  0.1       
 0.01       1.         47.E-15    26.E-15    0.001      0.001      46.96E-15  0.1       
Gnucap   System status
iterations: op=0, dc=3, tran=393, fourier=0, total=516
transient timesteps: accepted=119, rejected=1, total=120
nodes: user=3, subckt=0, model=1, total=4
dctran density=75.0%, ac density=75.0%
