#           v(n1)      v(nb)      v(nl)      i(Rb)      i(Rm)     
 0.         0.         0.         0.         0.         0.        
.model mycoil coil_auto ( inductance=100m)
ll ( nl 0 ) mycoil
V1 ( n1 0 ) pulse iv= 0. pv= 1. delay= 0. rise= 0.001 fall=NA( 0.) width=NA( Inf) period=NA( Inf)
Rb ( n1 nb )  1.K
Rm ( n1 nl )  1.K
* builtin coil for comparison 
Lb ( nb 0 )  0.1
#Time       v(n1)      v(nb)      v(nl)      i(Rb)      i(Rm)      v(Lb)      inductance(Lb)
 0.         0.         0.         0.         0.         0.         0.         0.1       
 100.E-6    0.1        0.063287   0.063287   36.713E-6  36.713E-6  0.063287   0.1       
 200.E-6    0.2        0.086621   0.086621   113.38E-6  113.38E-6  0.086621   0.1       
 300.E-6    0.3        0.095183   0.095183   204.82E-6  204.82E-6  0.095183   0.1       
 400.E-6    0.4        0.098394   0.098394   301.61E-6  301.61E-6  0.098394   0.1       
 500.E-6    0.5        0.099465   0.099465   400.54E-6  400.54E-6  0.099465   0.1       
 600.E-6    0.6        0.099822   0.099822   500.18E-6  500.18E-6  0.099822   0.1       
 700.E-6    0.7        0.099941   0.099941   600.06E-6  600.06E-6  0.099941   0.1       
 800.E-6    0.8        0.09998    0.09998    700.02E-6  700.02E-6  0.09998    0.1       
 900.E-6    0.9        0.099993   0.099993   800.01E-6  800.01E-6  0.099993   0.1       
 0.001      1.         0.099998   0.099998   900.E-6    900.E-6    0.099998   0.1       
 0.0011     1.         0.033333   0.033333   966.67E-6  966.67E-6  0.033333   0.1       
 0.0012     1.         0.011111   0.011111   988.89E-6  988.89E-6  0.011111   0.1       
 0.0013     1.         0.0037036  0.0037036  996.3E-6   996.3E-6   0.0037036  0.1       
 0.0014     1.         0.0012345  0.0012345  998.77E-6  998.77E-6  0.0012345  0.1       
 0.0015     1.         411.51E-6  411.51E-6  999.59E-6  999.59E-6  411.51E-6  0.1       
 0.0016     1.         137.17E-6  137.17E-6  999.86E-6  999.86E-6  137.17E-6  0.1       
 0.0017     1.         45.724E-6  45.724E-6  999.95E-6  999.95E-6  45.724E-6  0.1       
 0.0018     1.         15.241E-6  15.241E-6  999.98E-6  999.98E-6  15.241E-6  0.1       
 0.0019     1.         5.0804E-6  5.0804E-6  999.99E-6  999.99E-6  5.0804E-6  0.1       
 0.002      1.         1.6935E-6  1.6935E-6  0.001      0.001      1.6935E-6  0.1       
 0.0021     1.         564.49E-9  564.49E-9  0.001      0.001      564.49E-9  0.1       
 0.0022     1.         188.16E-9  188.16E-9  0.001      0.001      188.16E-9  0.1       
 0.0023     1.         62.721E-9  62.719E-9  0.001      0.001      62.721E-9  0.1       
 0.0024     1.         20.907E-9  20.905E-9  0.001      0.001      20.907E-9  0.1       
 0.0025     1.         6.969E-9   6.9671E-9  0.001      0.001      6.969E-9   0.1       
 0.0026     1.         2.323E-9   2.3211E-9  0.001      0.001      2.323E-9   0.1       
 0.0027     1.         774.3E-12  772.5E-12  0.001      0.001      774.3E-12  0.1       
 0.0028     1.         258.1E-12  256.2E-12  0.001      0.001      258.1E-12  0.1       
 0.0029     1.         86.04E-12  84.17E-12  0.001      0.001      86.04E-12  0.1       
 0.003      1.         28.68E-12  26.81E-12  0.001      0.001      28.68E-12  0.1       
 0.0031     1.         9.56E-12   7.692E-12  0.001      0.001      9.56E-12   0.1       
 0.0032     1.         3.186E-12  1.319E-12  0.001      0.001      3.186E-12  0.1       
 0.0033     1.         1.062E-12 -805.E-15   0.001      0.001      1.062E-12  0.1       
 0.0034     1.         354.E-15  -1.513E-12  0.001      0.001      353.7E-15  0.1       
 0.0035     1.         118.E-15  -1.749E-12  0.001      0.001      117.6E-15  0.1       
 0.0036     1.         39.E-15   -1.828E-12  0.001      0.001      39.08E-15  0.1       
 0.0037     1.         39.E-15   -1.828E-12  0.001      0.001      39.08E-15  0.1       
 0.0038     1.         39.E-15   -1.828E-12  0.001      0.001      39.08E-15  0.1       
 0.0039     1.         39.E-15   -1.828E-12  0.001      0.001      39.08E-15  0.1       
 0.004      1.         39.E-15   -1.828E-12  0.001      0.001      39.08E-15  0.1       
 0.0041     1.         39.E-15   -1.828E-12  0.001      0.001      39.08E-15  0.1       
 0.0042     1.         39.E-15   -1.828E-12  0.001      0.001      39.08E-15  0.1       
 0.0043     1.         39.E-15   -1.828E-12  0.001      0.001      39.08E-15  0.1       
 0.0044     1.         39.E-15   -1.828E-12  0.001      0.001      39.08E-15  0.1       
 0.0045     1.         39.E-15   -1.828E-12  0.001      0.001      39.08E-15  0.1       
 0.0046     1.         39.E-15   -1.828E-12  0.001      0.001      39.08E-15  0.1       
 0.0047     1.         39.E-15   -1.828E-12  0.001      0.001      39.08E-15  0.1       
 0.0048     1.         39.E-15   -1.828E-12  0.001      0.001      39.08E-15  0.1       
 0.0049     1.         39.E-15   -1.828E-12  0.001      0.001      39.08E-15  0.1       
 0.005      1.         39.E-15   -1.828E-12  0.001      0.001      39.08E-15  0.1       
 0.0051     1.         39.E-15   -1.828E-12  0.001      0.001      39.08E-15  0.1       
 0.0052     1.         39.E-15   -1.828E-12  0.001      0.001      39.08E-15  0.1       
 0.0053     1.         39.E-15   -1.828E-12  0.001      0.001      39.08E-15  0.1       
 0.0054     1.         39.E-15   -1.828E-12  0.001      0.001      39.08E-15  0.1       
 0.0055     1.         39.E-15   -1.828E-12  0.001      0.001      39.08E-15  0.1       
 0.0056     1.         39.E-15   -1.828E-12  0.001      0.001      39.08E-15  0.1       
 0.0057     1.         39.E-15   -1.828E-12  0.001      0.001      39.08E-15  0.1       
 0.0058     1.         39.E-15   -1.828E-12  0.001      0.001      39.08E-15  0.1       
 0.0059     1.         39.E-15   -1.828E-12  0.001      0.001      39.08E-15  0.1       
 0.006      1.         39.E-15   -1.828E-12  0.001      0.001      39.08E-15  0.1       
 0.0061     1.         39.E-15   -1.828E-12  0.001      0.001      39.08E-15  0.1       
 0.0062     1.         39.E-15   -1.828E-12  0.001      0.001      39.08E-15  0.1       
 0.0063     1.         39.E-15   -1.828E-12  0.001      0.001      39.08E-15  0.1       
 0.0064     1.         39.E-15   -1.828E-12  0.001      0.001      39.08E-15  0.1       
 0.0065     1.         39.E-15   -1.828E-12  0.001      0.001      39.08E-15  0.1       
 0.0066     1.         39.E-15   -1.828E-12  0.001      0.001      39.08E-15  0.1       
 0.0067     1.         39.E-15   -1.828E-12  0.001      0.001      39.08E-15  0.1       
 0.0068     1.         39.E-15   -1.828E-12  0.001      0.001      39.08E-15  0.1       
 0.0069     1.         39.E-15   -1.828E-12  0.001      0.001      39.08E-15  0.1       
 0.007      1.         39.E-15   -1.828E-12  0.001      0.001      39.08E-15  0.1       
 0.0071     1.         39.E-15   -1.828E-12  0.001      0.001      39.08E-15  0.1       
 0.0072     1.         39.E-15   -1.828E-12  0.001      0.001      39.08E-15  0.1       
 0.0073     1.         39.E-15   -1.828E-12  0.001      0.001      39.08E-15  0.1       
 0.0074     1.         39.E-15   -1.828E-12  0.001      0.001      39.08E-15  0.1       
 0.0075     1.         39.E-15   -1.828E-12  0.001      0.001      39.08E-15  0.1       
 0.0076     1.         39.E-15   -1.828E-12  0.001      0.001      39.08E-15  0.1       
 0.0077     1.         39.E-15   -1.828E-12  0.001      0.001      39.08E-15  0.1       
 0.0078     1.         39.E-15   -1.828E-12  0.001      0.001      39.08E-15  0.1       
 0.0079     1.         39.E-15   -1.828E-12  0.001      0.001      39.08E-15  0.1       
 0.008      1.         39.E-15   -1.828E-12  0.001      0.001      39.08E-15  0.1       
 0.0081     1.         39.E-15   -1.828E-12  0.001      0.001      39.08E-15  0.1       
 0.0082     1.         39.E-15   -1.828E-12  0.001      0.001      39.08E-15  0.1       
 0.0083     1.         39.E-15   -1.828E-12  0.001      0.001      39.08E-15  0.1       
 0.0084     1.         39.E-15   -1.828E-12  0.001      0.001      39.08E-15  0.1       
 0.0085     1.         39.E-15   -1.828E-12  0.001      0.001      39.08E-15  0.1       
 0.0086     1.         39.E-15   -1.828E-12  0.001      0.001      39.08E-15  0.1       
 0.0087     1.         39.E-15   -1.828E-12  0.001      0.001      39.08E-15  0.1       
 0.0088     1.         39.E-15   -1.828E-12  0.001      0.001      39.08E-15  0.1       
 0.0089     1.         39.E-15   -1.828E-12  0.001      0.001      39.08E-15  0.1       
 0.009      1.         39.E-15   -1.828E-12  0.001      0.001      39.08E-15  0.1       
 0.0091     1.         39.E-15   -1.828E-12  0.001      0.001      39.08E-15  0.1       
 0.0092     1.         39.E-15   -1.828E-12  0.001      0.001      39.08E-15  0.1       
 0.0093     1.         39.E-15   -1.828E-12  0.001      0.001      39.08E-15  0.1       
 0.0094     1.         39.E-15   -1.828E-12  0.001      0.001      39.08E-15  0.1       
 0.0095     1.         39.E-15   -1.828E-12  0.001      0.001      39.08E-15  0.1       
 0.0096     1.         39.E-15   -1.828E-12  0.001      0.001      39.08E-15  0.1       
 0.0097     1.         39.E-15   -1.828E-12  0.001      0.001      39.08E-15  0.1       
 0.0098     1.         39.E-15   -1.828E-12  0.001      0.001      39.08E-15  0.1       
 0.0099     1.         39.E-15   -1.828E-12  0.001      0.001      39.08E-15  0.1       
 0.01       1.         39.E-15   -1.828E-12  0.001      0.001      39.08E-15  0.1       
Gnucap   System status
iterations: op=0, dc=3, tran=389, fourier=0, total=512
transient timesteps: accepted=118, rejected=2, total=120
nodes: user=3, subckt=0, model=1, total=4
dctran density=75.0%, ac density=75.0%
