#           v(n1)      v(na)      v(nb)      v(nbr)     v(nint)    v(nm)      i(Ra)      i(Rint)    i(Rb)      i(Rbr)     i(Rm)     
 0.         0.         0.         0.         0.         0.         0.         0.         0.         0.         0.         0.        
.model mycoil_br coil_br ( inductance=100m)
.model mycoil_int coil_idt ( inductance=1)
.model mycoil_mag coil_mag ( inductance=1)
lint ( nint 0 )  mycoil_int 
lbr ( nbr 0 )  mycoil_br 
lm ( nm 0 )  mycoil_mag 
V1 ( n1 0 ) pulse iv= 0. pv= 1. delay= 0. rise= 0.001 fall=NA( 0.) width=NA( Inf) period=NA( Inf)
Ra ( n1 na )  1.K
Rint ( n1 nint )  100.
Rb ( n1 nb )  100.
Rbr ( n1 nbr )  100.
Rm ( n1 nm )  1.K
* builtin coil for comparison 
Lb ( nb 0 )  0.1
#Time       v(n1)      v(na)      v(nb)      v(nbr)     v(nint)    v(nm)      i(Ra)      i(Rint)    i(Rb)      i(Rbr)     i(Rm)      v(lm)      v(Lb)      inductance(Lb)
 0.         0.         0.         0.         0.         0.         0.         0.         0.         0.         0.         0.         0.         0.         0.1       
 100.u      0.1        0.1        0.090909   0.090909   0.099502   0.090909   100.f      4.9751u    90.909u    90.909u    9.0909u    0.090909   0.090909   0.1       
 200.u      0.2        0.2        0.17749    0.17749    0.19801    0.17749    200.f      19.851u    225.11u    225.11u    22.511u    0.17749    0.17749    0.1       
 300.u      0.3        0.3        0.25582    0.25582    0.29555    0.25582    300.f      44.529u    441.76u    441.76u    44.176u    0.25582    0.25582    0.1       
 400.u      0.4        0.4        0.3267     0.3267     0.39211    0.3267     400.f      78.912u    733.03u    733.03u    73.303u    0.3267     0.3267     0.1       
 595.92u    0.59592    0.59592    0.44684    0.44684    0.57852    0.44684    595.92f    173.99u    0.0014908  0.0014908  149.08u    0.44684    0.44684    0.1       
 791.84u    0.79184    0.79184    0.54555    0.54555    0.76131    0.54555    791.84f    305.24u    0.0024629  0.0024629  246.29u    0.54555    0.54555    0.1       
 0.001      1.         1.         0.63123    0.63123    0.95165    0.63123    1.p        483.53u    0.0036877  0.0036877  368.77u    0.63123    0.63123    0.1       
 0.0011731  1.         1.         0.5381     0.53068    0.93532    0.53068    1.p        646.83u    0.004619   0.0046932  469.32u    0.53068    0.5381     0.1       
 0.001301   1.         1.         0.4734     0.46687    0.92343    0.46687    1.p        765.72u    0.005266   0.0053313  533.13u    0.46687    0.4734     0.1       
 0.0014289  1.         1.         0.41648    0.41074    0.91169    0.41074    1.p        883.1u     0.0058352  0.0058926  589.26u    0.41074    0.41648    0.1       
 0.0015569  1.         1.         0.3664     0.36135    0.9001     0.36135    1.p        998.98u    0.006336   0.0063865  638.65u    0.36135    0.3664     0.1       
 0.0016848  1.         1.         0.32235    0.3179     0.88866    0.3179     1.p        0.0011134  0.0067765  0.006821   682.1u     0.3179     0.32235    0.1       
 0.0021005  1.         1.         0.21139    0.20848    0.85247    0.20848    1.p        0.0014753  0.0078861  0.0079152  791.52u    0.20848    0.21139    0.1       
 0.0025163  1.         1.         0.13863    0.13672    0.81774    0.13672    1.p        0.0018225  0.0086137  0.0086328  863.28u    0.13672    0.13863    0.1       
 0.0029321  1.         1.         0.090913   0.08966    0.78444    0.08966    1.p        0.0021556  0.0090909  0.0091034  910.34u    0.08966    0.090913   0.1       
 0.0033478  1.         1.         0.05962    0.058798   0.75249    0.058798   1.p        0.0024751  0.0094038  0.009412   941.2u     0.058798   0.05962    0.1       
 0.0037636  1.         1.         0.039098   0.03856    0.72184    0.038559   1.p        0.0027816  0.009609   0.0096144  961.44u    0.038559   0.039098   0.1       
 0.0041793  1.         1.         0.02564    0.025287   0.69244    0.025287   1.p        0.0030756  0.0097436  0.0097471  974.71u    0.025287   0.02564    0.1       
 0.0045951  1.         1.         0.016815   0.016583   0.66424    0.016583   1.p        0.0033576  0.0098318  0.0098342  983.42u    0.016583   0.016815   0.1       
 0.0050109  1.         1.         0.011027   0.010875   0.63718    0.010875   1.p        0.0036282  0.0098897  0.0098912  989.12u    0.010875   0.011027   0.1       
 0.0054266  1.         1.         0.0072315  0.007132   0.61123    0.0071318  1.p        0.0038877  0.0099277  0.0099287  992.87u    0.0071318  0.0072315  0.1       
 0.0058424  1.         1.         0.0047423  0.0046772  0.58634    0.004677   1.p        0.0041366  0.0099526  0.0099532  995.32u    0.004677   0.0047423  0.1       
 0.0062582  1.         1.         0.00311    0.0030673  0.56246    0.0030671  1.p        0.0043754  0.0099689  0.0099693  996.93u    0.0030671  0.00311    0.1       
 0.0066739  1.         1.         0.0020395  0.0020116  0.53955    0.0020114  1.p        0.0046045  0.0099796  0.0099799  997.99u    0.0020114  0.0020395  0.1       
 0.0070897  1.         1.         0.0013375  0.0013193  0.51757    0.0020114  1.p        0.0048243  0.0099866  0.0099868  997.99u    0.0020114  0.0013375  0.1       
 0.0075054  1.         1.         877.12u    865.22u    0.49649    0.0020114  1.p        0.0050351  0.0099912  0.0099913  997.99u    0.0020114  877.12u    0.1       
 0.0079212  1.         1.         575.2u     567.47u    0.47627    0.0020114  1.p        0.0052373  0.0099942  0.0099943  997.99u    0.0020114  575.2u     0.1       
 0.008337   1.         1.         377.21u    372.21u    0.45687    0.0020114  1.p        0.0054313  0.0099962  0.0099963  997.99u    0.0020114  377.21u    0.1       
 0.0087527  1.         1.         247.37u    244.16u    0.43826    0.0020114  1.p        0.0056174  0.0099975  0.0099976  997.99u    0.0020114  247.37u    0.1       
 0.0091685  1.         1.         162.22u    160.19u    0.42041    0.0020114  1.p        0.0057959  0.0099984  0.0099984  997.99u    0.0020114  162.22u    0.1       
 0.0093071  1.         1.         141.2u     139.45u    0.41463    0.0017507  1.p        0.0058537  0.0099986  0.0099986  998.25u    0.0017507  141.2u     0.1       
 0.0096535  1.         1.         99.5u      98.33u     0.40051    0.0012337  1.p        0.0059949  0.009999   0.009999   998.77u    0.0012337  99.5u      0.1       
 0.009769   1.         1.         88.635u    87.615u    0.39591    0.001099   1.p        0.0060409  0.0099991  0.0099991  998.9u     0.001099   88.635u    0.1       
 0.01       1.         1.         70.281u    69.512u    0.38687    871.43u    1.p        0.0061313  0.0099993  0.0099993  999.13u    871.43u    70.281u    0.1       
