#           v(t1)      zero(g1)   one(g1)    minusone(g1) i(r1)      gdio(d1)   gdio(d2)   geff(d2)   idio(d1)   idio(d2)   i(e1)      i(e2)     
-1.        -2.         0.         1.        -1.         5.         6.258E-30  6.07E-30   6.07E-30  -10.E-15   -10.E-15    0.         0.        
-0.8       -2.         0.         1.        -1.         4.         14.28E-27  13.85E-27  13.85E-27 -10.E-15   -10.E-15    0.         0.        
-0.6       -2.         0.         1.        -1.         3.         32.57E-24  31.59E-24  31.59E-24 -10.E-15   -10.E-15    0.         0.        
-0.4       -2.         0.         1.        -1.         2.         74.29E-21  72.06E-21  72.06E-21 -10.E-15   -10.E-15    0.         0.        
-0.2       -2.         0.         1.        -1.         1.         169.5E-18  164.4E-18  164.4E-18 -9.996E-15 -9.996E-15  0.         0.        
 0.        -2.         0.         1.        -1.         363.8E-18  386.6E-15  375.E-15   375.E-15   0.         0.         0.         0.        
 0.2       -2.         0.         1.        -1.        -1.         882.E-12   855.4E-12  855.4E-12  22.8E-12   22.8E-12  -25.47E-12 -21.83E-12 
 0.4       -2.         0.         1.        -1.        -2.         2.012E-6   1.6469E-6  1.6469E-6  52.04E-9   43.914E-9 -52.045E-9 -43.918E-9 
 0.6       -2.         0.         1.        -1.        -3.         0.0045898  44.644E-6  44.644E-6  118.72E-6  1.1904E-6 -118.72E-6 -1.1904E-6 
 0.8       -2.         0.         1.        -1.        -4.         10.469     110.83E-6  110.83E-6  0.27079    2.9554E-6 -0.27079   -2.9552E-6 
 1.        -2.         0.         1.        -1.        -5.         19.629E+3  181.09E-6  181.09E-6  507.69     4.8287E-6 -507.69    -4.8282E-6 
#Time       v(t1)      zero(g1)   one(g1)    minusone(g1) i(r1)      gdio(d1)   gdio(d2)   geff(d2)   idio(d1)   idio(d2)   i(e1)      i(e2)     
 0.        -2.         0.         1.        -1.         5.         6.258E-30  6.07E-30   6.07E-30  -10.E-15   -10.E-15    0.         0.        
 0.001     -2.         0.         1.        -1.         4.99       6.761E-30  6.558E-30  6.558E-30 -10.E-15   -10.E-15    0.         14.55E-12 
 0.1       -2.         0.         1.        -1.         4.         14.28E-27  13.85E-27  13.85E-27 -10.E-15   -10.E-15    0.         0.        
 0.199     -2.         0.         1.        -1.         3.01       30.14E-24  29.24E-24  29.24E-24 -10.E-15   -10.E-15    0.         0.        
 0.2       -2.         0.         1.        -1.         3.         32.57E-24  31.59E-24  31.59E-24 -10.E-15   -10.E-15    0.         0.        
 0.201     -2.         0.         1.        -1.         2.99       35.19E-24  34.13E-24  34.13E-24 -10.E-15   -10.E-15    0.         14.55E-12 
 0.3       -2.         0.         1.        -1.         2.         74.29E-21  72.06E-21  72.06E-21 -10.E-15   -10.E-15    0.         0.        
 0.4       -2.         0.         1.        -1.         1.         169.5E-18  164.4E-18  164.4E-18 -9.996E-15 -9.996E-15  0.         0.        
 0.5       -2.         0.         1.        -1.        -4.926E-30  386.6E-15  375.E-15   375.E-15   0.         0.         0.         0.        
 0.6       -2.         0.         1.        -1.        -1.         882.E-12   855.4E-12  855.4E-12  22.8E-12   22.8E-12  -25.47E-12 -21.83E-12 
 0.7       -2.         0.         1.        -1.        -2.         2.012E-6   1.6469E-6  1.6469E-6  52.04E-9   43.914E-9 -52.045E-9 -43.918E-9 
 0.8       -2.         0.         1.        -1.        -3.         0.0045898  44.644E-6  44.644E-6  118.72E-6  1.1904E-6 -118.72E-6 -1.1904E-6 
 0.9       -2.         0.         1.        -1.        -4.         10.469     110.83E-6  110.83E-6  0.27079    2.9554E-6 -0.27079   -2.9552E-6 
 1.        -2.         0.         1.        -1.        -5.         19.629E+3  181.09E-6  181.09E-6  507.69     4.8287E-6 -507.69    -4.8282E-6 
