name   ...
have 3 nodes. model: 0 sckt: 0 adp 0

n1       n1 matrix_number 2, user_number 2 nm[t]  vdc  0.
n2       n2 matrix_number 1, user_number 3 nm[t]  vdc  0.
nddt     nddt matrix_number 3, user_number 1 nm[t]  vdc  0.
-ddt1
#           v(n1)      v(n2)      v(nddt)    i(R1)      method(C1)
 0.         0.         0.         0.         0.        -1.        
*.options method=euler 
.model myddt diff ( gain=2)
ddt1 ( nddt 0 n1 0 )  myddt 
V1 ( n1 0 ) pulse iv= 0. pv= 0.001 delay= 1.n rise= 0.001 fall= 0.001 width= 0.004 period= 0.008
R1 ( nddt n2 )  100.
C1 ( n2 0 )  1.u
#Time       v(n1)      v(n2)      v(nddt)    state0(ddt1) hidden(0)  dis(n1)    dis(n2)    dis(nddt)  v(C1)      meth(C1)   metg(ddt1)
 0.         0.         0.         0.         0.         1.         0.         0.         0.         0.         ??         ??        
 1.E-9      0.         0.         0.         0.         1.         2.         0.         0.         0.         ??         ??        
 2.E-9      1.E-9      9.9999E-6  2.         2.E-9      1.         0.         0.         0.         9.9999E-6  ??         ??        
 3.E-9      2.E-9      30.E-6     2.         4.E-9      1.         0.         0.         0.         30.E-6     ??         ??        
 4.E-9      3.E-9      49.999E-6  2.         6.E-9      1.         0.         0.         0.         49.999E-6  ??         ??        
 4.7489E-9  3.7489E-9  64.977E-6  2.         7.4978E-9  1.         0.         0.         0.         64.977E-6  ??         ??        
 1.424E-6   1.423E-6   0.028249   2.         2.846E-6   1.         0.         0.         0.         0.028249   ??         ??        
 10.691E-6  10.69E-6   0.20287    2.         21.379E-6  1.         0.         0.         0.         0.20287    ??         ??        
 29.718E-6  29.717E-6  0.51511    2.         59.434E-6  1.         0.         0.         0.         0.51511    ??         ??        
 58.617E-6  58.616E-6  0.89006    2.         117.23E-6  1.         0.         0.         0.         0.89006    ??         ??        
 87.517E-6  87.516E-6  1.1703     2.         175.03E-6  1.         0.         0.         0.         1.1703     ??         ??        
 131.18E-6  131.18E-6  1.4677     2.         262.37E-6  1.         0.         0.         0.         1.4677     ??         ??        
 174.85E-6  174.85E-6  1.6585     2.         349.7E-6   1.         0.         0.         0.         1.6585     ??         ??        
 218.52E-6  218.52E-6  1.7809     2.         437.03E-6  1.         0.         0.         0.         1.7809     ??         ??        
 286.92E-6  286.92E-6  1.8926     2.         573.84E-6  1.         0.         0.         0.         1.8926     ??         ??        
 355.32E-6  355.32E-6  1.9473     2.         710.64E-6  1.         0.         0.         0.         1.9473     ??         ??        
 459.03E-6  459.03E-6  1.9833     2.         918.06E-6  1.         0.         0.         0.         1.9833     ??         ??        
 562.73E-6  562.73E-6  1.9947     2.         0.0011255  1.         0.         0.         0.         1.9947     ??         ??        
 734.32E-6  734.32E-6  1.9996     2.         0.0014686  1.         0.         0.         0.         1.9996     ??         ??        
 905.91E-6  905.91E-6  2.         2.         0.0018118  1.         0.         0.         0.         2.         ??         ??        
 0.001      0.001      2.         2.         0.002      1.         2.         0.         0.         2.         ??         ??        
 0.0010657  0.001      1.5055     150.55E-9  0.002      2.         0.         0.         0.         1.5055     ??         ??        
 0.001099   0.001      1.0753     107.53E-9  0.002      1.         0.         0.         0.         1.0753     ??         ??        
 0.0011286  0.001      0.79829    79.829E-9  0.002      2.         0.         0.         0.         0.79829    ??         ??        
 0.0011582  0.001      0.59263    59.263E-9  0.002      1.         0.         0.         0.         0.59263    ??         ??        
 0.0011877  0.001      0.43996    43.996E-9  0.002      1.         0.         0.         0.         0.43996    ??         ??        
 0.0012173  0.001      0.32661    32.661E-9  0.002      1.         0.         0.         0.         0.32661    ??         ??        
 0.0012469  0.001      0.24247    24.247E-9  0.002      1.         0.         0.         0.         0.24247    ??         ??        
 0.0012765  0.001      0.18       18.E-9     0.002      1.         0.         0.         0.         0.18       ??         ??        
 0.001306   0.001      0.13363    13.363E-9  0.002      1.         0.         0.         0.         0.13363    ??         ??        
 0.0013356  0.001      0.099205   9.9205E-9  0.002      1.         0.         0.         0.         0.099205   ??         ??        
 0.0013652  0.001      0.073648   7.3648E-9  0.002      1.         0.         0.         0.         0.073648   ??         ??        
 0.0013947  0.001      0.054674   5.4674E-9  0.002      1.         0.         0.         0.         0.054674   ??         ??        
 0.0014243  0.001      0.040589   4.0589E-9  0.002      1.         0.         0.         0.         0.040589   ??         ??        
 0.0014539  0.001      0.030132   3.0132E-9  0.002      1.         0.         0.         0.         0.030132   ??         ??        
 0.0014835  0.001      0.02237    2.237E-9   0.002      1.         0.         0.         0.         0.02237    ??         ??        
 0.001513   0.001      0.016607   1.6607E-9  0.002      1.         0.         0.         0.         0.016607   ??         ??        
 0.0015426  0.001      0.012328   1.2328E-9  0.002      1.         0.         0.         0.         0.012328   ??         ??        
 0.0015722  0.001      0.0091524  915.2E-12  0.002      1.         0.         0.         0.         0.0091524  ??         ??        
 0.0016017  0.001      0.0067945  679.5E-12  0.002      1.         0.         0.         0.         0.0067945  ??         ??        
 0.0016313  0.001      0.0050441  504.4E-12  0.002      1.         0.         0.         0.         0.0050441  ??         ??        
 0.0016609  0.001      0.0037446  374.5E-12  0.002      1.         0.         0.         0.         0.0037446  ??         ??        
 0.0016905  0.001      0.0027799  278.E-12   0.002      1.         0.         0.         0.         0.0027799  ??         ??        
 0.00172    0.001      0.0020638  206.4E-12  0.002      1.         0.         0.         0.         0.0020638  ??         ??        
 0.0017496  0.001      0.0015321  153.2E-12  0.002      1.         0.         0.         0.         0.0015321  ??         ??        
 0.0017792  0.001      0.0011374  113.7E-12  0.002      1.         0.         0.         0.         0.0011374  ??         ??        
 0.0018087  0.001      844.37E-6  84.44E-12  0.002      1.         0.         0.         0.         844.37E-6  ??         ??        
 0.0018383  0.001      626.84E-6  62.68E-12  0.002      1.         0.         0.         0.         626.84E-6  ??         ??        
 0.0018679  0.001      465.36E-6  46.54E-12  0.002      1.         0.         0.         0.         465.36E-6  ??         ??        
 0.0018975  0.001      345.47E-6  34.55E-12  0.002      1.         0.         0.         0.         345.47E-6  ??         ??        
 0.001927   0.001      256.47E-6  25.65E-12  0.002      1.         0.         0.         0.         256.47E-6  ??         ??        
 0.0019566  0.001      190.4E-6   19.04E-12  0.002      1.         0.         0.         0.         190.4E-6   ??         ??        
 0.0019862  0.001      141.35E-6  14.14E-12  0.002      1.         0.         0.         0.         141.35E-6  ??         ??        
 0.0020157  0.001      104.93E-6  10.49E-12  0.002      1.         0.         0.         0.         104.93E-6  ??         ??        
 0.0020453  0.001      77.9E-6    7.79E-12   0.002      1.         0.         0.         0.         77.9E-6    ??         ??        
 0.0020749  0.001      57.831E-6  5.783E-12  0.002      1.         0.         0.         0.         57.831E-6  ??         ??        
 0.0021045  0.001      42.932E-6  4.293E-12  0.002      1.         0.         0.         0.         42.932E-6  ??         ??        
 0.002134   0.001      31.872E-6  3.187E-12  0.002      1.         0.         0.         0.         31.872E-6  ??         ??        
 0.0021636  0.001      23.661E-6  2.366E-12  0.002      1.         0.         0.         0.         23.661E-6  ??         ??        
 0.0021932  0.001      17.565E-6  1.757E-12  0.002      1.         0.         0.         0.         17.565E-6  ??         ??        
 0.0022227  0.001      13.04E-6   1.304E-12  0.002      1.         0.         0.         0.         13.04E-6   ??         ??        
 0.0022523  0.001      9.6808E-6  968.E-15   0.002      1.         0.         0.         0.         9.6808E-6  ??         ??        
 0.0022819  0.001      7.1868E-6  719.E-15   0.002      1.         0.         0.         0.         7.1868E-6  ??         ??        
 0.0023115  0.001      5.3353E-6  534.E-15   0.002      1.         0.         0.         0.         5.3353E-6  ??         ??        
 0.0023572  0.001      3.3483E-6  335.E-15   0.002      1.         0.         0.         0.         3.3483E-6  ??         ??        
 0.002403   0.001      2.1013E-6  210.E-15   0.002      1.         0.         0.         0.         2.1013E-6  ??         ??        
 0.0024488  0.001      1.3187E-6  132.E-15   0.002      1.         0.         0.         0.         1.3187E-6  ??         ??        
 0.0024945  0.001      827.58E-9  83.E-15    0.002      1.         0.         0.         0.         827.58E-9  ??         ??        
 0.0025719  0.001      365.86E-9  37.E-15    0.002      1.         0.         0.         0.         365.86E-9  ??         ??        
 0.0026493  0.001      161.74E-9  16.E-15    0.002      1.         0.         0.         0.         161.74E-9  ??         ??        
 0.0027659  0.001      42.556E-9  4.E-15     0.002      1.         0.         0.         0.         42.556E-9  ??         ??        
 0.0028826  0.001      11.197E-9  1.E-15     0.002      1.         0.         0.         0.         11.197E-9  ??         ??        
 0.003086   0.001     -93.09E-12  0.         0.002      1.         0.         0.         0.        -93.09E-12  ??         ??        
 0.0032893  0.001      774.E-15   0.         0.002      1.         0.         0.         0.         774.E-15   ??         ??        
 0.0038055  0.001     -342.E-15   0.         0.002      1.         0.         0.         0.        -341.7E-15  ??         ??        
 0.0046905  0.001      216.E-15   0.         0.002      1.         0.         0.         0.         215.7E-15  ??         ??        
 0.005      0.001     -46.E-15    0.         0.002      1.         2.         0.         0.        -46.38E-15  ??         ??        
 0.0050943  905.66E-6 -0.64103   -2.         0.0018113  2.         0.         0.         0.        -0.64103    ??         ??        
 0.0051471  852.91E-6 -1.2083    -2.         0.0017058  1.         0.         0.         0.        -1.2083     ??         ??        
 0.0051912  808.79E-6 -1.4944    -2.         0.0016176  2.         0.         0.         0.        -1.4944     ??         ??        
 0.0052353  764.68E-6 -1.6772    -2.         0.0015294  1.         0.         0.         0.        -1.6772     ??         ??        
 0.0052794  720.56E-6 -1.7939    -2.         0.0014411  1.         0.         0.         0.        -1.7939     ??         ??        
 0.0053489  651.14E-6 -1.9001    -2.         0.0013023  1.         0.         0.         0.        -1.9001     ??         ??        
 0.0054183  581.72E-6 -1.9516    -2.         0.0011634  1.         0.         0.         0.        -1.9516     ??         ??        
 0.0055224  477.59E-6 -1.9847    -2.         955.18E-6  1.         0.         0.         0.        -1.9847     ??         ??        
 0.0056265  373.46E-6 -1.9952    -2.         746.92E-6  1.         0.         0.         0.        -1.9952     ??         ??        
 0.0058015  198.52E-6 -1.9997    -2.         397.04E-6  1.         0.         0.         0.        -1.9997     ??         ??        
 0.006      0.        -2.        -2.         0.         1.         2.         0.         0.        -2.         ??         ??        
 0.006      0.        -2.        -200.E-9    0.         2.         0.         0.         0.        -2.         ??         ??        
 0.006      0.        -1.9999    -199.99E-9  0.         1.         0.         0.         0.        -1.9999     ??         ??        
 0.0060001  0.        -1.9971    -199.71E-9  0.         1.         0.         0.         0.        -1.9971     ??         ??        
 0.0060003  0.        -1.9943    -199.43E-9  0.         1.         0.         0.         0.        -1.9943     ??         ??        
 0.0060479  0.        -1.2273    -122.73E-9  0.         1.         0.         0.         0.        -1.2273     ??         ??        
 0.0060955  0.        -0.75529   -75.529E-9  0.         1.         0.         0.         0.        -0.75529    ??         ??        
 0.0061431  0.        -0.46481   -46.481E-9  0.         1.         0.         0.         0.        -0.46481    ??         ??        
 0.0061908  0.        -0.28605   -28.605E-9  0.         1.         0.         0.         0.        -0.28605    ??         ??        
 0.0062384  0.        -0.17604   -17.604E-9  0.         1.         0.         0.         0.        -0.17604    ??         ??        
 0.006286   0.        -0.10833   -10.833E-9  0.         1.         0.         0.         0.        -0.10833    ??         ??        
 0.0063336  0.        -0.06667   -6.667E-9   0.         1.         0.         0.         0.        -0.06667    ??         ??        
 0.0063812  0.        -0.041029  -4.1029E-9  0.         1.         0.         0.         0.        -0.041029   ??         ??        
 0.0064288  0.        -0.025249  -2.5249E-9  0.         1.         0.         0.         0.        -0.025249   ??         ??        
 0.0064764  0.        -0.015539  -1.5539E-9  0.         1.         0.         0.         0.        -0.015539   ??         ??        
 0.0065241  0.        -0.0095626 -956.3E-12  0.         1.         0.         0.         0.        -0.0095626  ??         ??        
 0.0065717  0.        -0.0058849 -588.5E-12  0.         1.         0.         0.         0.        -0.0058849  ??         ??        
 0.0066193  0.        -0.0036216 -362.2E-12  0.         1.         0.         0.         0.        -0.0036216  ??         ??        
 0.0066669  0.        -0.0022288 -222.9E-12  0.         1.         0.         0.         0.        -0.0022288  ??         ??        
 0.0067145  0.        -0.0013716 -137.2E-12  0.         1.         0.         0.         0.        -0.0013716  ??         ??        
 0.0067621  0.        -844.09E-6 -84.41E-12  0.         1.         0.         0.         0.        -844.09E-6  ??         ??        
 0.0068098  0.        -519.46E-6 -51.95E-12  0.         1.         0.         0.         0.        -519.46E-6  ??         ??        
 0.0068574  0.        -319.68E-6 -31.97E-12  0.         1.         0.         0.         0.        -319.68E-6  ??         ??        
 0.006905   0.        -196.73E-6 -19.67E-12  0.         1.         0.         0.         0.        -196.73E-6  ??         ??        
 0.0069526  0.        -121.07E-6 -12.11E-12  0.         1.         0.         0.         0.        -121.07E-6  ??         ??        
 0.0070002  0.        -74.508E-6 -7.451E-12  0.         1.         0.         0.         0.        -74.508E-6  ??         ??        
 0.0070478  0.        -45.853E-6 -4.585E-12  0.         1.         0.         0.         0.        -45.853E-6  ??         ??        
 0.0070954  0.        -28.218E-6 -2.822E-12  0.         1.         0.         0.         0.        -28.218E-6  ??         ??        
 0.0071431  0.        -17.366E-6 -1.737E-12  0.         1.         0.         0.         0.        -17.366E-6  ??         ??        
 0.0071907  0.        -10.687E-6 -1.069E-12  0.         1.         0.         0.         0.        -10.687E-6  ??         ??        
 0.0072383  0.        -6.5768E-6 -658.E-15   0.         1.         0.         0.         0.        -6.5768E-6  ??         ??        
 0.0072859  0.        -4.0474E-6 -405.E-15   0.         1.         0.         0.         0.        -4.0474E-6  ??         ??        
 0.0073335  0.        -2.4908E-6 -249.E-15   0.         1.         0.         0.         0.        -2.4908E-6  ??         ??        
 0.0073811  0.        -1.5329E-6 -153.E-15   0.         1.         0.         0.         0.        -1.5329E-6  ??         ??        
 0.0074288  0.        -943.34E-9 -94.E-15    0.         1.         0.         0.         0.        -943.34E-9  ??         ??        
 0.0075002  0.        -446.88E-9 -45.E-15    0.         1.         0.         0.         0.        -446.88E-9  ??         ??        
 0.0075716  0.        -211.7E-9  -21.E-15    0.         1.         0.         0.         0.        -211.7E-9   ??         ??        
 0.0076772  0.        -65.417E-9 -7.E-15     0.         1.         0.         0.         0.        -65.417E-9  ??         ??        
 0.0077828  0.        -20.219E-9 -2.E-15     0.         1.         0.         0.         0.        -20.219E-9  ??         ??        
 0.0079675  0.        -810.5E-12  0.         0.         1.         0.         0.         0.        -810.5E-12  ??         ??        
 0.008      0.        -587.1E-12  0.         0.         1.         2.         0.         0.        -587.1E-12  ??         ??        
 0.0080005  487.09E-9  0.0048591  2.         974.18E-9  5.         0.         0.         0.         0.0048591  ??         ??        
 0.0080008  822.24E-9  0.011535   2.         1.6445E-6  1.         0.         0.         0.         0.011535   ??         ??        
 0.0080012  1.188E-6   0.018794   2.         2.376E-6   2.         0.         0.         0.         0.018794   ??         ??        
 0.0080016  1.5537E-6  0.026027   2.         3.1075E-6  1.         0.         0.         0.         0.026027   ??         ??        
 0.0080119  11.908E-6  0.22036    2.         23.817E-6  1.         0.         0.         0.         0.22036    ??         ??        
 0.0080307  30.664E-6  0.52553    2.         61.328E-6  1.         0.         0.         0.         0.52553    ??         ??        
 0.0080601  60.057E-6  0.90339    2.         120.11E-6  1.         0.         0.         0.         0.90339    ??         ??        
 0.0080895  89.45E-6   1.1844     2.         178.9E-6   1.         0.         0.         0.         1.1844     ??         ??        
 0.0081329  132.87E-6  1.4754     2.         265.74E-6  1.         0.         0.         0.         1.4754     ??         ??        
 0.0081763  176.29E-6  1.6625     2.         352.59E-6  1.         0.         0.         0.         1.6625     ??         ??        
 0.0082197  219.71E-6  1.7829     2.         439.43E-6  1.         0.         0.         0.         1.7829     ??         ??        
 0.0082882  288.19E-6  1.8937     2.         576.37E-6  1.         0.         0.         0.         1.8937     ??         ??        
 0.0083567  356.66E-6  1.9479     2.         713.32E-6  1.         0.         0.         0.         1.9479     ??         ??        
 0.0084594  459.37E-6  1.9833     2.         918.74E-6  1.         0.         0.         0.         1.9833     ??         ??        
 0.0085621  562.08E-6  1.9946     2.         0.0011242  1.         0.         0.         0.         1.9946     ??         ??        
 0.0087218  721.85E-6  1.9994     2.         0.0014437  1.         0.         0.         0.         1.9994     ??         ??        
