name   ...
have 3 nodes. model: 0 sckt: 0 adp 0

n1       n1 matrix_number 2, user_number 2 nm[t]  vdc  0.
n2       n2 matrix_number 1, user_number 3 nm[t]  vdc  0.
nddt     nddt matrix_number 3, user_number 1 nm[t]  vdc  0.
-ddt1


#           v(n1)      v(n2)      v(nddt)    i(R1)      method(C1)
 0.         0.         0.         0.         0.        -1.        
*.options method=euler 
.model myddt diff ( gain=2)
ddt1 ( nddt 0 n1 0 )  myddt 
V1 ( n1 0 ) pulse iv= 0. pv= 0.001 delay= 1.n rise= 0.001 fall= 0.001 width= 0.004 period= 0.008
R1 ( nddt n2 )  100.
C1 ( n2 0 )  1.u
#Time       v(n1)      v(n2)      v(nddt)    state0(ddt1) hidden(0)  dis(n1)    dis(n2)    dis(nddt)  v(C1)      hidden(0) 
 0.         0.         0.         0.         0.         1.         0.         0.         0.         0.         1.        
 50.E-6     49.999E-6  0.78~      2.         99.998E-6  9.         0.         0.         0.         0.78923    9.        
 100.E-6    99.999E-6  1.26~      2.         200.E-6    2.         0.         0.         0.         1.2676     2.        
 150.E-6    150.E-6    1.55~      2.         300.E-6    2.         0.         0.         0.         1.5569     2.        
 200.E-6    200.E-6    1.73~      2.         400.E-6    1.         0.         0.         0.         1.7342     1.        
 250.E-6    250.E-6    1.84~      2.         500.E-6    1.         0.         0.         0.         1.8405     1.        
 300.E-6    300.E-6    1.90~      2.         600.E-6    1.         0.         0.         0.         1.9043     1.        
 350.E-6    350.E-6    1.94~      2.         700.E-6    1.         0.         0.         0.         1.9426     1.        
 400.E-6    400.E-6    1.96~      2.         800.E-6    1.         0.         0.         0.         1.9655     1.        
 450.E-6    450.E-6    1.97~      2.         900.E-6    1.         0.         0.         0.         1.9793     1.        
 500.E-6    500.E-6    1.98~      2.         0.001      1.         0.         0.         0.         1.9876     1.        
 550.E-6    550.E-6    1.99~      2.         0.0011     1.         0.         0.         0.         1.9926     1.        
 600.E-6    600.E-6    1.99~      2.         0.0012     1.         0.         0.         0.         1.9955     1.        
 650.E-6    650.E-6    1.99~      2.         0.0013     1.         0.         0.         0.         1.9973     1.        
 700.E-6    700.E-6    1.99~      2.         0.0014     1.         0.         0.         0.         1.9984     1.        
 750.E-6    750.E-6    1.99~      2.         0.0015     1.         0.         0.         0.         1.999      1.        
 800.E-6    800.E-6    1.99~      2.         0.0016     1.         0.         0.         0.         1.999~     1.        
 850.E-6    850.E-6    1.99~      2.         0.0017     1.         0.         0.         0.         1.999~     1.        
 900.E-6    900.E-6    1.99~      2.         0.0018     1.         0.         0.         0.         1.999~     1.        
 950.E-6    950.E-6    1.99~      2.         0.0019     1.         0.         0.         0.         1.999~     1.        
 0.001      0.001      1.99~      2.         0.002      1.         0.         0.         0.         1.999~     1.        
 0.00105    0.001      1.10~      110.21E-9  0.002      6.         0.         0.         0.         1.102~     6.        
 0.0011     0.001      0.66~      66.67E-9   0.002      2.         0.         0.         0.         0.666~     2.        
 0.00115    0.001      0.40~      40.331E-9  0.002      2.         0.         0.         0.         0.403~     2.        
 0.0012     0.001      0.24~      24.398E-9  0.002      2.         0.         0.         0.         0.243~     2.        
 0.00125    0.001      0.14~      14.759E-9  0.002      2.         0.         0.         0.         0.147~     2.        
 0.0013     0.001      0.089284   8.9284E-9  0.002      2.         0.         0.         0.         0.089~     2.        
 0.00135    0.001      0.054011   5.4011E-9  0.002      2.         0.         0.         0.         0.054~     2.        
 0.0014     0.001      0.032674   3.2674E-9  0.002      2.         0.         0.         0.         0.032~     2.        
 0.00145    0.001      0.019766   1.9765E-9  0.002      2.         0.         0.         0.         0.019~     2.        
 0.0015     0.001      0.011957   1.1957E-9  0.002      2.         0.         0.         0.         0.011~     2.        
 0.00155    0.001      0.0072332  723.3E-12  0.002      2.         0.         0.         0.         0.007~     2.        
 0.0016     0.001      0.0043756  437.6E-12  0.002      2.         0.         0.         0.         0.004~     2.        
 0.00165    0.001      0.002647   264.7E-12  0.002      2.         0.         0.         0.         0.002~     2.        
 0.0017     0.001      0.0016013  160.1E-12  0.002      2.         0.         0.         0.         0.001~     2.        
 0.00175    0.001      968.67E-6  96.86E-12  0.002      2.         0.         0.         0.         968.67E-6  2.        
 0.0018     0.001      585.98E-6  58.59E-12  0.002      2.         0.         0.         0.         585.98E-6  2.        
 0.00185    0.001      354.48E-6  35.44E-12  0.002      2.         0.         0.         0.         354.48E-6  2.        
 0.0019     0.001      214.44E-6  21.43E-12  0.002      2.         0.         0.         0.         214.44E-6  2.        
 0.00195    0.001      129.72E-6  12.96E-12  0.002      2.         0.         0.         0.         129.72E-6  2.        
 0.002      0.001      78.475E-6  7.836E-12  0.002      2.         0.         0.         0.         78.475E-6  2.        
 0.00205    0.001      47.472E-6  4.736E-12  0.002      2.         0.         0.         0.         47.472E-6  2.        
 0.0021     0.001      28.718E-6  2.86E-12   0.002      2.         0.         0.         0.         28.718E-6  2.        
 0.00215    0.001      17.373E-6  1.726E-12  0.002      2.         0.         0.         0.         17.373E-6  2.        
 0.0022     0.001      10.509E-6  1.04E-12   0.002      2.         0.         0.         0.         10.509E-6  2.        
 0.00225    0.001      6.3575E-6  624.E-15   0.002      2.         0.         0.         0.         6.3575E-6  2.        
 0.0023     0.001      3.8459E-6  373.E-15   0.002      2.         0.         0.         0.         3.8459E-6  2.        
 0.00235    0.001      2.3075E-6  219.E-15   0.002      1.         0.         0.         0.         2.3075E-6  1.        
 0.0024     0.001      1.3845E-6  127.E-15   0.002      1.         0.         0.         0.         1.3845E-6  1.        
 0.00245    0.001      830.72E-9  72.E-15    0.002      1.         0.         0.         0.         830.72E-9  1.        
 0.0025     0.001      498.44E-9  39.E-15    0.002      1.         0.         0.         0.         498.44E-9  1.        
 0.00255    0.001      299.07E-9  19.E-15    0.002      1.         0.         0.         0.         299.07E-9  1.        
 0.0026     0.001      179.44E-9  7.E-15     0.002      1.         0.         0.         0.         179.44E-9  1.        
 0.00265    0.001      107.67E-9 -1.E-15     0.002      1.         0.         0.         0.         107.67E-9  1.        
 0.0027     0.001      64.607E-9 -5.E-15     0.002      1.         0.         0.         0.         64.607E-9  1.        
 0.00275    0.001      38.769E-9 -7.E-15     0.002      1.         0.         0.         0.         38.769E-9  1.        
 0.0028     0.001      23.266E-9 -9.E-15     0.002      1.         0.         0.         0.         23.266E-9  1.        
 0.00285    0.001      13.964E-9 -10.E-15    0.002      1.         0.         0.         0.         13.964E-9  1.        
 0.0029     0.001      8.3828E-9 -10.E-15    0.002      1.         0.         0.         0.         8.3828E-9  1.        
 0.00295    0.001      5.0341E-9 -11.E-15    0.002      1.         0.         0.         0.         5.0341E-9  1.        
 0.003      0.001      3.0249E-9 -11.E-15    0.002      1.         0.         0.         0.         3.0249E-9  1.        
 0.00305    0.001      1.8194E-9 -11.E-15    0.002      1.         0.         0.         0.         1.8194E-9  1.        
 0.0031     0.001      1.0961E-9 -11.E-15    0.002      1.         0.         0.         0.         1.0961E-9  1.        
 0.00315    0.001      662.1E-12 -11.E-15    0.002      1.         0.         0.         0.         662.1E-12  1.        
 0.0032     0.001      401.7E-12 -11.E-15    0.002      1.         0.         0.         0.         401.7E-12  1.        
 0.00325    0.001      245.5E-12 -11.E-15    0.002      1.         0.         0.         0.         245.5E-12  1.        
 0.0033     0.001      151.7E-12 -11.E-15    0.002      1.         0.         0.         0.         151.7E-12  1.        
 0.00335    0.001      95.48E-12 -11.E-15    0.002      1.         0.         0.         0.         95.48E-12  1.        
 0.0034     0.001      61.74E-12 -11.E-15    0.002      1.         0.         0.         0.         61.74E-12  1.        
 0.00345    0.001      41.49E-12 -11.E-15    0.002      1.         0.         0.         0.         41.49E-12  1.        
 0.0035     0.001      29.34E-12 -11.E-15    0.002      1.         0.         0.         0.         29.34E-12  1.        
 0.00355    0.001      22.05E-12 -11.E-15    0.002      1.         0.         0.         0.         22.05E-12  1.        
 0.0036     0.001      17.68E-12 -11.E-15    0.002      1.         0.         0.         0.         17.68E-12  1.        
 0.00365    0.001      15.05E-12 -11.E-15    0.002      1.         0.         0.         0.         15.05E-12  1.        
 0.0037     0.001      13.48E-12 -11.E-15    0.002      1.         0.         0.         0.         13.48E-12  1.        
 0.00375    0.001      12.53E-12 -11.E-15    0.002      1.         0.         0.         0.         12.53E-12  1.        
 0.0038     0.001      11.97E-12 -11.E-15    0.002      1.         0.         0.         0.         11.97E-12  1.        
 0.00385    0.001      11.63E-12 -11.E-15    0.002      1.         0.         0.         0.         11.63E-12  1.        
 0.0039     0.001      11.42E-12 -11.E-15    0.002      1.         0.         0.         0.         11.42E-12  1.        
 0.00395    0.001      11.3E-12  -11.E-15    0.002      1.         0.         0.         0.         11.3E-12   1.        
 0.004      0.001      11.23E-12 -11.E-15    0.002      1.         0.         0.         0.         11.23E-12  1.        
 0.00405    0.001      11.18E-12 -11.E-15    0.002      1.         0.         0.         0.         11.18E-12  1.        
 0.0041     0.001      11.16E-12 -11.E-15    0.002      1.         0.         0.         0.         11.16E-12  1.        
 0.00415    0.001      11.14E-12 -11.E-15    0.002      1.         0.         0.         0.         11.14E-12  1.        
 0.0042     0.001      11.13E-12 -11.E-15    0.002      1.         0.         0.         0.         11.13E-12  1.        
 0.00425    0.001      11.13E-12 -11.E-15    0.002      1.         0.         0.         0.         11.13E-12  1.        
 0.0043     0.001      11.12E-12 -11.E-15    0.002      1.         0.         0.         0.         11.12E-12  1.        
 0.00435    0.001      11.12E-12 -11.E-15    0.002      1.         0.         0.         0.         11.12E-12  1.        
 0.0044     0.001      11.12E-12 -11.E-15    0.002      1.         0.         0.         0.         11.12E-12  1.        
 0.00445    0.001      11.12E-12 -11.E-15    0.002      1.         0.         0.         0.         11.12E-12  1.        
 0.0045     0.001      11.12E-12 -11.E-15    0.002      1.         0.         0.         0.         11.12E-12  1.        
 0.00455    0.001      11.12E-12 -11.E-15    0.002      1.         0.         0.         0.         11.12E-12  1.        
 0.0046     0.001      11.12E-12 -11.E-15    0.002      1.         0.         0.         0.         11.12E-12  1.        
 0.00465    0.001      11.12E-12 -11.E-15    0.002      1.         0.         0.         0.         11.12E-12  1.        
 0.0047     0.001      11.12E-12 -11.E-15    0.002      1.         0.         0.         0.         11.12E-12  1.        
 0.00475    0.001      11.12E-12 -11.E-15    0.002      1.         0.         0.         0.         11.12E-12  1.        
 0.0048     0.001      11.12E-12 -11.E-15    0.002      1.         0.         0.         0.         11.12E-12  1.        
 0.00485    0.001      11.12E-12 -11.E-15    0.002      1.         0.         0.         0.         11.12E-12  1.        
 0.0049     0.001      11.12E-12 -11.E-15    0.002      1.         0.         0.         0.         11.12E-12  1.        
 0.00495    0.001      11.12E-12 -11.E-15    0.002      1.         0.         0.         0.         11.12E-12  1.        
 0.005      0.001      11.12E-12 -11.E-15    0.002      1.         0.         0.         0.         11.12E-12  1.        
 0.00505    950.E-6   -0.76266   -2.         0.0019     9.         0.         0.         0.        -0.76266    9.        
 0.0051     900.E-6   -1.2515    -2.         0.0018     2.         0.         0.         0.        -1.2515     2.        
 0.00515    850.E-6   -1.5472    -2.         0.0017     2.         0.         0.         0.        -1.5472     2.        
 0.0052     800.E-6   -1.7283    -2.         0.0016     1.         0.         0.         0.        -1.7283     1.        
 0.00525    750.E-6   -1.837     -2.         0.0015     1.         0.         0.         0.        -1.837      1.        
 0.0053     700.E-6   -1.9022    -2.         0.0014     1.         0.         0.         0.        -1.9022     1.        
 0.00535    650.E-6   -1.9413    -2.         0.0013     1.         0.         0.         0.        -1.9413     1.        
 0.0054     600.E-6   -1.9648    -2.         0.0012     1.         0.         0.         0.        -1.9648     1.        
 0.00545    550.E-6   -1.9789    -2.         0.0011     1.         0.         0.         0.        -1.9789     1.        
 0.0055     500.E-6   -1.9873    -2.         0.001      1.         0.         0.         0.        -1.9873     1.        
 0.00555    450.E-6   -1.9924    -2.         900.E-6    1.         0.         0.         0.        -1.9924     1.        
 0.0056     400.E-6   -1.9954    -2.         800.E-6    1.         0.         0.         0.        -1.9954     1.        
 0.00565    350.E-6   -1.9973    -2.         700.E-6    1.         0.         0.         0.        -1.9973     1.        
 0.0057     300.E-6   -1.9984    -2.         600.E-6    1.         0.         0.         0.        -1.9984     1.        
 0.00575    250.E-6   -1.999     -2.         500.E-6    1.         0.         0.         0.        -1.999      1.        
 0.0058     200.E-6   -1.9994    -2.         400.E-6    1.         0.         0.         0.        -1.9994     1.        
 0.00585    150.E-6   -1.9996    -2.         300.E-6    1.         0.         0.         0.        -1.9996     1.        
 0.0059     100.E-6   -1.9998    -2.         200.E-6    1.         0.         0.         0.        -1.9998     1.        
 0.00595    50.001E-6 -1.9999    -2.         100.E-6    1.         0.         0.         0.        -1.9999     1.        
 0.006      1.E-9     -1.9999    -2.         2.E-9      1.         0.         0.         0.        -1.9999     1.        
 0.00605    0.        -1.2104    -120.54E-9  0.         10.        0.         0.         0.        -1.2104     10.       
 0.0061     0.        -0.73223   -72.725E-9  0.         2.         0.         0.         0.        -0.73223    2.        
 0.00615    0.        -0.44296   -43.797E-9  0.         2.         0.         0.         0.        -0.44296    2.        
 0.0062     0.        -0.26796   -26.298E-9  0.         2.         0.         0.         0.        -0.26796    2.        
 0.00625    0.        -0.1621    -15.711E-9  0.         2.         0.         0.         0.        -0.1621     2.        
 0.0063     0.        -0.09806   -9.3075E-9  0.         2.         0.         0.         0.        -0.09806    2.        
 0.00635    0.        -0.05932   -5.4335E-9  0.         2.         0.         0.         0.        -0.05932    2.        
 0.0064     0.        -0.035885  -3.09E-9    0.         2.         0.         0.         0.        -0.035885   2.        
 0.00645    0.        -0.021708  -1.6723E-9  0.         2.         0.         0.         0.        -0.021708   2.        
 0.0065     0.        -0.013132  -814.7E-12  0.         2.         0.         0.         0.        -0.013132   2.        
 0.00655    0.        -0.0079442 -295.9E-12  0.         2.         0.         0.         0.        -0.0079442  2.        
 0.0066     0.        -0.0048057  17.98E-12  0.         2.         0.         0.         0.        -0.0048057  2.        
 0.00665    0.        -0.0029072  207.8E-12  0.         2.         0.         0.         0.        -0.0029072  2.        
 0.0067     0.        -0.0017587  322.7E-12  0.         2.         0.         0.         0.        -0.0017587  2.        
 0.00675    0.        -0.0010639  392.2E-12  0.         2.         0.         0.         0.        -0.0010639  2.        
 0.0068     0.        -643.59E-6  434.2E-12  0.         2.         0.         0.         0.        -643.59E-6  2.        
 0.00685    0.        -389.33E-6  459.6E-12  0.         2.         0.         0.         0.        -389.33E-6  2.        
 0.0069     0.        -235.52E-6  475.E-12   0.         2.         0.         0.         0.        -235.52E-6  2.        
 0.00695    0.        -142.48E-6  484.3E-12  0.         2.         0.         0.         0.        -142.48E-6  2.        
 0.007      0.        -86.192E-6  489.9E-12  0.         2.         0.         0.         0.        -86.192E-6  2.        
 0.00705    0.        -52.142E-6  493.3E-12  0.         2.         0.         0.         0.        -52.142E-6  2.        
 0.0071     0.        -31.544E-6  495.4E-12  0.         2.         0.         0.         0.        -31.544E-6  2.        
 0.00715    0.        -19.083E-6  496.6E-12  0.         2.         0.         0.         0.        -19.083E-6  2.        
 0.0072     0.        -11.546E-6  497.4E-12  0.         2.         0.         0.         0.        -11.546E-6  2.        
 0.00725    0.        -6.9857E-6  497.9E-12  0.         2.         0.         0.         0.        -6.9857E-6  2.        
 0.0073     0.        -4.2272E-6  498.1E-12  0.         2.         0.         0.         0.        -4.2272E-6  2.        
 0.00735    0.        -2.5377E-6 -498.8E-12  0.         1.         0.         0.         0.        -2.5377E-6  1.        
 0.0074     0.        -1.5239E-6  498.4E-12  0.         1.         0.         0.         0.        -1.5239E-6  1.        
 0.00745    0.        -915.69E-9 -498.6E-12  0.         1.         0.         0.         0.        -915.69E-9  1.        
 0.0075     0.        -550.74E-9  498.5E-12  0.         1.         0.         0.         0.        -550.74E-9  1.        
 0.00755    0.        -331.77E-9 -498.6E-12  0.         1.         0.         0.         0.        -331.77E-9  1.        
 0.0076     0.        -200.39E-9  498.5E-12  0.         1.         0.         0.         0.        -200.39E-9  1.        
 0.00765    0.        -121.57E-9 -498.6E-12  0.         1.         0.         0.         0.        -121.57E-9  1.        
 0.0077     0.        -74.268E-9  498.5E-12  0.         1.         0.         0.         0.        -74.268E-9  1.        
 0.00775    0.        -45.89E-9  -498.6E-12  0.         1.         0.         0.         0.        -45.89E-9   1.        
 0.0078     0.        -28.863E-9  498.5E-12  0.         1.         0.         0.         0.        -28.863E-9  1.        
 0.00785    0.        -18.647E-9 -498.6E-12  0.         1.         0.         0.         0.        -18.647E-9  1.        
