#Time       v(na)      v(naraw)   v(nd)      v(ndd)     v(ndraw)  
 0.         8.7313E-9  0.         0.         1.5        0.        
 10.E-12    1.0016E-6 -7.E-15     2.3922E-6  1.5       -81.E-15   
 20.E-12   -1.5833E-6  5.E-15    -2.5847E-6  1.5        104.E-15  
 30.E-12    2.2356E-6 -2.E-15     3.819E-6   1.5       -118.E-15  
 40.E-12   -3.1354E-6  0.        -5.3706E-6  1.5        122.E-15  
 50.E-12    4.2361E-6  2.E-15     7.3715E-6  1.5       -119.E-15  
 60.E-12   -5.8128E-6 -2.E-15    -10.048E-6  1.5        111.E-15  
 70.E-12    7.7041E-6  3.E-15     13.517E-6  1.5       -101.E-15  
 80.E-12   -10.496E-6 -3.E-15    -18.198E-6  1.5        89.E-15   
 90.E-12    13.802E-6  2.E-15     24.297E-6  1.5       -79.E-15   
 100.E-12  -18.754E-6 -1.E-15    -32.553E-6  1.5        74.E-15   
 110.E-12   24.578E-6 -1.E-15     43.332E-6  1.5       -73.E-15   
 120.E-12  -33.366E-6  5.E-15    -57.939E-6  1.5        85.E-15   
 130.E-12   43.663E-6 -10.E-15    77.029E-6  1.5       -114.E-15  
 140.E-12  -59.256E-6  17.E-15   -102.91E-6  1.5        167.E-15  
 150.E-12   77.472E-6 -26.E-15    136.73E-6  1.5       -252.E-15  
 160.E-12  -105.14E-6  39.E-15   -182.6E-6   1.5        382.E-15  
 170.E-12   137.44E-6 -56.E-15    242.58E-6  1.5       -572.E-15  
 180.E-12  -186.52E-6  79.E-15   -323.94E-6  1.5        841.E-15  
 190.E-12   243.82E-6 -109.E-15   430.34E-6  1.5       -1.216E-12 
 200.E-12  -330.86E-6  150.E-15  -574.63E-6  1.5        1.734E-12 
 210.E-12   432.53E-6 -203.E-15   763.39E-6  1.5       -2.441E-12 
 220.E-12  -586.87E-6  277.E-15  -0.0010193  1.5        3.402E-12 
 230.E-12   767.39E-6 -372.E-15   0.0013543  1.5       -4.7E-12   
 240.E-12  -326.7E-6  -3.055E-12 -0.0010941  1.5       -666.E-15  
 250.E-12   612.8E-6   1.678E-12  939.5E-6   1.5        10.13E-12 
 260.E-12  -684.E-6   -721.E-15  -0.0012967  1.5       -14.93E-12 
 270.E-12   947.73E-6  756.E-15   0.0016317  1.5        17.88E-12 
 280.E-12  -418.08E-6 -3.548E-12 -0.0013658  1.5       -26.49E-12 
 290.E-12   781.7E-6   2.121E-12  0.0011998  1.5        37.83E-12 
 300.E-12  -840.23E-6 -400.E-15  -0.0016218  1.5       -42.87E-12 
 310.E-12   505.52E-6  4.466E-12  0.0013457  1.5        52.6E-12  
 320.E-12  -746.54E-6 -1.702E-12 -0.001252   1.5       -64.94E-12 
 330.E-12   876.75E-6  701.E-15   0.0016234  1.5        69.75E-12 
 340.E-12  -721.09E-6 -1.5E-12   -0.0015978  1.5       -74.15E-12 
 350.E-12   0.0010002 -329.E-15   0.0017213  1.5        76.49E-12 
 360.E-12  -507.34E-6 -1.691E-12 -0.0015074  1.5       -79.22E-12 
 370.E-12   844.69E-6 -417.E-15   0.0013521  1.5        81.76E-12 
 380.E-12  -919.57E-6  2.481E-12 -0.0017642  1.5       -75.97E-12 
 390.E-12   575.52E-6  1.164E-12  0.001495   1.5        73.33E-12 
 400.E-12  -838.17E-6  1.746E-12 -0.0014136  1.5       -72.17E-12 
 410.E-12   969.82E-6 -3.122E-12  0.0018081  1.5        62.44E-12 
 420.E-12  -550.81E-6  1.101E-12 -0.0015206  1.5       -53.99E-12 
 430.E-12   827.65E-6 -3.876E-12  0.0013785  1.5        44.03E-12 
 440.E-12  -928.25E-6  5.872E-12 -0.0017558  1.5       -24.53E-12 
 450.E-12   593.43E-6 -2.961E-12  0.0015217  1.5        6.867E-12 
 460.E-12  -870.72E-6  5.594E-12 -0.001464   1.5        10.24E-12 
 470.E-12   987.34E-6 -7.28E-12   0.0018581  1.5       -35.99E-12 
 480.E-12  -589.5E-6   5.23E-12  -0.0015768  1.5        61.01E-12 
 490.E-12   851.01E-6 -8.343E-12  0.0014405  1.5       -88.16E-12 
 500.E-12  -963.64E-6  10.43E-12 -0.0018145  1.5        125.7E-12 
 510.E-12   0.028131   1.5       -0.16443    1.5        1.5       
 520.E-12  -0.065966   1.5       -0.0072121  1.5        75.496E-9 
 530.E-12  -0.077502   1.5       -0.012369   1.5        85.083E-9 
 540.E-12  -0.098995   1.5       -0.021492   1.5       -86.901E-9 
 550.E-12  -0.10711    1.5       -0.0081175  1.5        88.034E-9 
 560.E-12  -0.061628   1.5        0.045484   1.5       -89.495E-9 
 570.E-12   0.1051     1.5        0.27074    1.5        99.373E-9 
 580.E-12   0.5187     1.5        0.47449    1.5       -135.62E-9 
 590.E-12   1.021      1.5        0.50022    1.5        152.22E-9 
 600.E-12   1.3165     1.5        0.16185    1.5       -165.94E-9 
 610.E-12   1.4012     1.5        0.057269   1.5       -190.61E-9 
 620.E-12   1.4413     1.5        0.033617   1.5       -199.88E-9 
 630.E-12   1.465      1.5        0.020104   1.5       -206.05E-9 
 640.E-12   1.4798     1.5        0.014864   1.5        209.04E-9 
 650.E-12   1.4882     1.5        0.0083305  1.5       -210.68E-9 
 660.E-12   1.4935     1.5        0.0053468  1.5        212.18E-9 
 670.E-12   1.4961     1.5        0.0025759  1.5       -213.76E-9 
 680.E-12   1.498      1.5        0.0019533  1.5        215.3E-9  
 690.E-12   1.4986     1.5        613.81E-6  1.5       -216.87E-9 
 700.E-12   1.4995     1.5        838.08E-6  1.5        218.42E-9 
 710.E-12   1.4992     1.5       -260.91E-6  1.5       -219.98E-9 
 720.E-12   1.4998     1.5        565.01E-6  1.5        221.54E-9 
 730.E-12   1.4992     1.5       -541.06E-6  1.5       -223.12E-9 
 740.E-12   1.5001     1.5        880.25E-6  1.5        224.7E-9  
 750.E-12   1.4992     1.5       -922.42E-6  1.5       -226.29E-9 
 760.E-12   1.5006     1.5        0.0013533  1.5        227.88E-9 
 770.E-12   1.4993     1.5       -0.0012817  1.5       -229.48E-9 
 780.E-12   1.5009     1.5        0.0016399  1.5        231.09E-9 
 790.E-12   1.4991     1.5       -0.0018151  1.5       -232.7E-9  
 800.E-12   1.5009     1.5        0.001782   1.5        234.31E-9 
 810.E-12   1.4991     1.5       -0.0018185  1.5       -235.93E-9 
 820.E-12   1.5014     1.5        0.0023021  1.5        237.55E-9 
 830.E-12   1.4987     1.5       -0.0026561  1.5       -239.17E-9 
 840.E-12   1.5007     1.5        0.0020344  1.5        240.79E-9 
 850.E-12   1.4988     1.5       -0.0019859  1.5       -242.4E-9  
 860.E-12   1.5014     1.5        0.0026152  1.5        244.02E-9 
 870.E-12   1.4985     1.5       -0.0028502  1.5       -245.61E-9 
 880.E-12   1.5016     1.5        0.0030639  1.5        247.2E-9  
 890.E-12   1.4985     1.5       -0.0030914  1.5       -248.78E-9 
 900.E-12   1.5009     1.5        0.0024182  1.5        250.35E-9 
 910.E-12   1.4985     1.5       -0.0024572  1.5       -251.9E-9  
 920.E-12   1.5012     1.5        0.0027862  1.5        253.43E-9 
 930.E-12   1.4991     1.5       -0.0021509  1.5       -254.95E-9 
 940.E-12   1.5016     1.5        0.0025094  1.5        256.46E-9 
 950.E-12   1.4983     1.5       -0.0033424  1.5       -257.97E-9 
 960.E-12   1.5009     1.5        0.0026347  1.5        259.47E-9 
 970.E-12   1.4987     1.5       -0.0022107  1.5       -260.95E-9 
 980.E-12   1.5011     1.5        0.0024547  1.5        262.41E-9 
 990.E-12   1.4986     1.5       -0.0025004  1.5       -263.85E-9 
 1.E-9      1.5014     1.5        0.0027221  1.5        265.28E-9 
