name   ...
have 3 nodes. model: 0 sckt: 0 adp 0

n1       n1 matrix_number 2, user_number 2 nm[t]  vdc  0.
n2       n2 matrix_number 1, user_number 3 nm[t]  vdc  0.
nddt     nddt matrix_number 3, user_number 1 nm[t]  vdc  0.
-ddt1
#           v(n1)      v(n2)      v(nddt)    i(R1)     
 0.         0.         0.         0.         0.        
*.options method=euler 
.model myddt diff ( gain=2)
ddt1 ( nddt 0 n1 0 )  myddt 
V1 ( n1 0 ) pulse iv= 0. pv= 0.001 delay= 1.n rise= 0.001 fall= 0.001 width= 0.004 period= 0.008
R1 ( nddt n2 )  100.
C1 ( n2 0 )  1.u
#Time       v(n1)      v(n2)      v(nddt)    state0(ddt1) hidden(0)  dis(n1)    dis(n2)    dis(nddt)  v(C1)     
 0.         0.         0.         0.         0.         1.         0.         0.         0.         0.        
 274.1E-12  0.         0.         0.         0.         7.         0.         0.         0.         0.        
 548.2E-12  0.         0.         0.         0.         1.         0.         0.         0.         0.        
 822.3E-12  0.         0.         0.         0.         1.         0.         0.         0.         0.        
 1.E-9      0.         0.         0.         0.         1.         2.         0.         0.         0.        
 1.02E-9    20.E-12    200.E-9    2.         40.E-12    9.         0.         0.         0.         200.E-9   
 1.031E-9   31.E-12    420.E-9    2.         62.E-12    1.         0.         0.         0.         420.E-9   
 1.0572E-9  57.17E-12  943.31E-9  2.         114.3E-12  1.         0.         0.         0.         943.31E-9 
 1.0833E-9  83.33E-12  1.4666E-6  2.         166.7E-12  1.         0.         0.         0.         1.4666E-6 
 783.62E-9  782.62E-9  0.015591   2.         1.5652E-6  1.         0.         0.         0.         0.015591  
 8.376E-6   8.375E-6   0.16075    2.         16.75E-6   1.         0.         0.         0.         0.16075   
 25.663E-6  25.662E-6  0.45339    2.         51.323E-6  1.         0.         0.         0.         0.45339   
 52.99E-6   52.989E-6  0.82523    2.         105.98E-6  1.         0.         0.         0.         0.82523   
 80.316E-6  80.315E-6  1.1077     2.         160.63E-6  1.         0.         0.         0.         1.1077    
 122.71E-6  122.71E-6  1.4198     2.         245.41E-6  1.         0.         0.         0.         1.4198    
 165.1E-6   165.1E-6   1.6227     2.         330.2E-6   1.         0.         0.         0.         1.6227    
 207.49E-6  207.49E-6  1.7547     2.         414.98E-6  1.         0.         0.         0.         1.7547    
 273.66E-6  273.66E-6  1.8767     2.         547.31E-6  1.         0.         0.         0.         1.8767    
 339.82E-6  339.82E-6  1.938      2.         679.64E-6  1.         0.         0.         0.         1.938     
 439.41E-6  439.41E-6  1.9792     2.         878.82E-6  1.         0.         0.         0.         1.9792    
 539.E-6    539.E-6    1.993      2.         0.001078   1.         0.         0.         0.         1.993     
 699.36E-6  699.36E-6  1.9992     2.         0.0013987  1.         0.         0.         0.         1.9992    
 859.71E-6  859.71E-6  1.9999     2.         0.0017194  1.         0.         0.         0.         1.9999    
 0.001      0.001      2.         2.         0.002      1.         2.         0.         0.         2.        
 0.0010667  0.001      1.5        150.E-9    0.002      2.         0.         0.         0.         1.5       
 0.0011047  0.001      1.0209     102.09E-9  0.002      1.         0.         0.         0.         1.0209    
 0.0011346  0.001      0.75493    75.493E-9  0.002      2.         0.         0.         0.         0.75493   
 0.0011646  0.001      0.55827    55.827E-9  0.002      1.         0.         0.         0.         0.55827   
 0.0011945  0.001      0.41284    41.284E-9  0.002      1.         0.         0.         0.         0.41284   
 0.0012245  0.001      0.3053     30.53E-9   0.002      1.         0.         0.         0.         0.3053    
 0.0012544  0.001      0.22577    22.577E-9  0.002      1.         0.         0.         0.         0.22577   
 0.0012844  0.001      0.16696    16.696E-9  0.002      1.         0.         0.         0.         0.16696   
 0.0013143  0.001      0.12347    12.347E-9  0.002      1.         0.         0.         0.         0.12347   
 0.0013443  0.001      0.091304   9.1304E-9  0.002      1.         0.         0.         0.         0.091304  
 0.0013742  0.001      0.06752    6.752E-9   0.002      1.         0.         0.         0.         0.06752   
 0.0014042  0.001      0.049931   4.9931E-9  0.002      1.         0.         0.         0.         0.049931  
 0.0014341  0.001      0.036924   3.6924E-9  0.002      1.         0.         0.         0.         0.036924  
 0.0014641  0.001      0.027306   2.7306E-9  0.002      1.         0.         0.         0.         0.027306  
 0.001494   0.001      0.020193   2.0193E-9  0.002      1.         0.         0.         0.         0.020193  
 0.001524   0.001      0.014933   1.4933E-9  0.002      1.         0.         0.         0.         0.014933  
 0.0015539  0.001      0.011043   1.1043E-9  0.002      1.         0.         0.         0.         0.011043  
 0.0015839  0.001      0.0081661  816.6E-12  0.002      1.         0.         0.         0.         0.0081661 
 0.0016138  0.001      0.0060389  603.9E-12  0.002      1.         0.         0.         0.         0.0060389 
 0.0016438  0.001      0.0044658  446.6E-12  0.002      1.         0.         0.         0.         0.0044658 
 0.0016737  0.001      0.0033025  330.2E-12  0.002      1.         0.         0.         0.         0.0033025 
 0.0017037  0.001      0.0024422  244.2E-12  0.002      1.         0.         0.         0.         0.0024422 
 0.0017336  0.001      0.001806   180.6E-12  0.002      1.         0.         0.         0.         0.001806  
 0.0017636  0.001      0.0013355  133.6E-12  0.002      1.         0.         0.         0.         0.0013355 
 0.0017935  0.001      987.64E-6  98.76E-12  0.002      1.         0.         0.         0.         987.64E-6 
 0.0018235  0.001      730.37E-6  73.04E-12  0.002      1.         0.         0.         0.         730.37E-6 
 0.0018534  0.001      540.11E-6  54.01E-12  0.002      1.         0.         0.         0.         540.11E-6 
 0.0018834  0.001      399.41E-6  39.94E-12  0.002      1.         0.         0.         0.         399.41E-6 
 0.0019133  0.001      295.37E-6  29.54E-12  0.002      1.         0.         0.         0.         295.37E-6 
 0.0019433  0.001      218.43E-6  21.84E-12  0.002      1.         0.         0.         0.         218.43E-6 
 0.0019732  0.001      161.53E-6  16.15E-12  0.002      1.         0.         0.         0.         161.53E-6 
 0.0020032  0.001      119.45E-6  11.95E-12  0.002      1.         0.         0.         0.         119.45E-6 
 0.0020331  0.001      88.334E-6  8.833E-12  0.002      1.         0.         0.         0.         88.334E-6 
 0.0020631  0.001      65.323E-6  6.532E-12  0.002      1.         0.         0.         0.         65.323E-6 
 0.0020931  0.001      48.307E-6  4.831E-12  0.002      1.         0.         0.         0.         48.307E-6 
 0.002123   0.001      35.723E-6  3.572E-12  0.002      1.         0.         0.         0.         35.723E-6 
 0.002153   0.001      26.417E-6  2.642E-12  0.002      1.         0.         0.         0.         26.417E-6 
 0.0021829  0.001      19.536E-6  1.954E-12  0.002      1.         0.         0.         0.         19.536E-6 
 0.0022129  0.001      14.447E-6  1.445E-12  0.002      1.         0.         0.         0.         14.447E-6 
 0.0022428  0.001      10.683E-6  1.068E-12  0.002      1.         0.         0.         0.         10.683E-6 
 0.0022728  0.001      7.9004E-6  790.E-15   0.002      1.         0.         0.         0.         7.9004E-6 
 0.0023027  0.001      5.8424E-6  584.E-15   0.002      1.         0.         0.         0.         5.8424E-6 
 0.0023327  0.001      4.3205E-6  432.E-15   0.002      1.         0.         0.         0.         4.3205E-6 
 0.0023818  0.001      2.6159E-6  262.E-15   0.002      1.         0.         0.         0.         2.6159E-6 
 0.002431   0.001      1.5838E-6  158.E-15   0.002      1.         0.         0.         0.         1.5838E-6 
 0.0024801  0.001      958.94E-9  96.E-15    0.002      1.         0.         0.         0.         958.94E-9 
 0.0025293  0.001      580.6E-9   58.E-15    0.002      1.         0.         0.         0.         580.6E-9  
 0.0026141  0.001      234.58E-9  23.E-15    0.002      1.         0.         0.         0.         234.58E-9 
 0.002699   0.001      94.776E-9  9.E-15     0.002      1.         0.         0.         0.         94.776E-9 
 0.0028318  0.001      19.156E-9  2.E-15     0.002      1.         0.         0.         0.         19.156E-9 
 0.0029645  0.001      3.8719E-9  0.         0.002      1.         0.         0.         0.         3.8719E-9 
 0.0032071  0.001     -372.7E-12  0.         0.002      1.         0.         0.         0.        -372.7E-12 
 0.0035647  0.001      105.3E-12  0.         0.002      1.         0.         0.         0.         105.3E-12 
 0.0042797  0.001     -59.27E-12  0.         0.002      1.         0.         0.         0.        -59.27E-12 
 0.005      0.001      33.51E-12  0.         0.002      1.         2.         0.         0.         33.51E-12 
 0.0051087  891.3E-6  -0.70423   -2.         0.0017826  2.         0.         0.         0.        -0.70423   
 0.0051839  816.05E-6 -1.4127    -2.         0.0016321  1.         0.         0.         0.        -1.4127    
 0.0052399  760.05E-6 -1.6697    -2.         0.0015201  2.         0.         0.         0.        -1.6697    
 0.0052959  704.05E-6 -1.8142    -2.         0.0014081  1.         0.         0.         0.        -1.8142    
 0.0053519  648.05E-6 -1.8955    -2.         0.0012961  1.         0.         0.         0.        -1.8955    
 0.0054079  592.05E-6 -1.9412    -2.         0.0011841  1.         0.         0.         0.        -1.9412    
 0.0055078  492.22E-6 -1.9804    -2.         984.45E-6  1.         0.         0.         0.        -1.9804    
 0.0056076  392.4E-6  -1.9934    -2.         784.79E-6  1.         0.         0.         0.        -1.9934    
 0.0057765  223.46E-6 -1.9994    -2.         446.92E-6  1.         0.         0.         0.        -1.9994    
 0.0059455  54.52E-6  -2.        -2.         109.04E-6  1.         0.         0.         0.        -2.        
 0.006      0.        -2.        -2.         35.53E-21  1.         2.         0.         0.        -2.        
 0.006      0.        -2.        -200.02E-9  0.         3.         0.         0.         0.        -2.        
 0.006      0.        -1.9999    -199.97E-9  0.         1.         0.         0.         0.        -1.9999    
 0.0060001  0.        -1.9987    -199.9E-9   0.         1.         0.         0.         0.        -1.9987    
 0.0060001  0.        -1.9976    -199.73E-9  0.         1.         0.         0.         0.        -1.9976    
 0.0060477  0.        -1.2293    -122.95E-9  0.         1.         0.         0.         0.        -1.2293    
 0.0060954  0.        -0.7565    -75.624E-9  0.         1.         0.         0.         0.        -0.7565    
 0.006143   0.        -0.46554   -46.58E-9   0.         1.         0.         0.         0.        -0.46554   
 0.0061906  0.        -0.28649   -28.624E-9  0.         1.         0.         0.         0.        -0.28649   
 0.0062382  0.        -0.17631   -17.656E-9  0.         1.         0.         0.         0.        -0.17631   
 0.0062858  0.        -0.1085    -10.824E-9  0.         1.         0.         0.         0.        -0.1085    
 0.0063334  0.        -0.066769  -6.7026E-9  0.         1.         0.         0.         0.        -0.066769  
 0.0063811  0.        -0.041089  -4.0832E-9  0.         1.         0.         0.         0.        -0.041089  
 0.0064287  0.        -0.025286  -2.5543E-9  0.         1.         0.         0.         0.        -0.025286  
 0.0064763  0.        -0.015561  -1.5304E-9  0.         1.         0.         0.         0.        -0.015561  
 0.0065239  0.        -0.0095761 -983.3E-12  0.         1.         0.         0.         0.        -0.0095761 
 0.0065715  0.        -0.0058931 -563.6E-12  0.         1.         0.         0.         0.        -0.0058931 
 0.0066192  0.        -0.0036266 -388.4E-12  0.         1.         0.         0.         0.        -0.0036266 
 0.0066668  0.        -0.0022318 -197.5E-12  0.         1.         0.         0.         0.        -0.0022318 
 0.0067144  0.        -0.0013734 -163.1E-12  0.         1.         0.         0.         0.        -0.0013734 
 0.006762   0.        -845.19E-6 -58.8E-12   0.         1.         0.         0.         0.        -845.19E-6 
 0.0068096  0.        -520.12E-6 -77.73E-12  0.         1.         0.         0.         0.        -520.12E-6 
 0.0068572  0.        -320.08E-6 -6.291E-12  0.         1.         0.         0.         0.        -320.08E-6 
 0.0069049  0.        -196.98E-6 -45.42E-12  0.         1.         0.         0.         0.        -196.98E-6 
 0.0069525  0.        -121.22E-6  13.6E-12   0.         1.         0.         0.         0.        -121.22E-6 
 0.0070001  0.        -74.597E-6 -33.18E-12  0.         1.         0.         0.         0.        -74.597E-6 
 0.0070477  0.        -45.907E-6  21.13E-12  0.         1.         0.         0.         0.        -45.907E-6 
 0.0070953  0.        -28.251E-6 -28.54E-12  0.         1.         0.         0.         0.        -28.251E-6 
 0.0071429  0.        -17.385E-6  23.98E-12  0.         1.         0.         0.         0.        -17.385E-6 
 0.0071906  0.        -10.699E-6 -26.79E-12  0.         1.         0.         0.         0.        -10.699E-6 
 0.0072382  0.        -6.584E-6   25.06E-12  0.         1.         0.         0.         0.        -6.584E-6  
 0.0072858  0.        -4.0517E-6 -26.12E-12  0.         1.         0.         0.         0.        -4.0517E-6 
 0.0073334  0.        -2.4934E-6  25.47E-12  0.         1.         0.         0.         0.        -2.4934E-6 
 0.007381   0.        -1.5344E-6 -25.87E-12  0.         1.         0.         0.         0.        -1.5344E-6 
 0.0074287  0.        -944.29E-9  25.62E-12  0.         1.         0.         0.         0.        -944.29E-9 
 0.0075001  0.        -447.32E-9 -25.76E-12  0.         1.         0.         0.         0.        -447.32E-9 
 0.0075715  0.        -211.9E-9   25.7E-12   0.         1.         0.         0.         0.        -211.9E-9  
 0.0076771  0.        -65.476E-9 -25.72E-12  0.         1.         0.         0.         0.        -65.476E-9 
 0.0077827  0.        -20.238E-9  25.72E-12  0.         1.         0.         0.         0.        -20.238E-9 
 0.0079675  0.        -812.9E-12 -25.72E-12  0.         1.         0.         0.         0.        -812.9E-12 
 0.008      0.        -589.E-12   25.72E-12  0.         1.         2.         0.         0.        -589.E-12  
 0.0080005  487.92E-9  0.0048674  2.         975.85E-9  5.         0.         0.         0.         0.0048674 
 0.0080008  823.81E-9  0.011557   2.         1.6476E-6  1.         0.         0.         0.         0.011557  
 0.0080012  1.1903E-6  0.018831   2.         2.3806E-6  2.         0.         0.         0.         0.018831  
 0.0080016  1.5568E-6  0.026079   2.         3.1136E-6  1.         0.         0.         0.         0.026079  
 0.0080119  11.911E-6  0.22041    2.         23.823E-6  1.         0.         0.         0.         0.22041   
 0.0080307  30.667E-6  0.52556    2.         61.334E-6  1.         0.         0.         0.         0.52556   
 0.0080601  60.06E-6   0.90341    2.         120.12E-6  1.         0.         0.         0.         0.90341   
 0.0080895  89.453E-6  1.1844     2.         178.91E-6  1.         0.         0.         0.         1.1844    
 0.0081329  132.87E-6  1.4754     2.         265.75E-6  1.         0.         0.         0.         1.4754    
 0.0081763  176.3E-6   1.6626     2.         352.59E-6  1.         0.         0.         0.         1.6626    
 0.0082197  219.72E-6  1.7829     2.         439.43E-6  1.         0.         0.         0.         1.7829    
 0.0082882  288.19E-6  1.8937     2.         576.38E-6  1.         0.         0.         0.         1.8937    
 0.0083567  356.66E-6  1.9479     2.         713.32E-6  1.         0.         0.         0.         1.9479    
 0.0084594  459.37E-6  1.9833     2.         918.74E-6  1.         0.         0.         0.         1.9833    
 0.0085621  562.08E-6  1.9946     2.         0.0011242  1.         0.         0.         0.         1.9946    
 0.0087218  721.85E-6  1.9994     2.         0.0014437  1.         0.         0.         0.         1.9994    
 0.0088816  881.62E-6  1.9999     2.         0.0017632  1.         0.         0.         0.         1.9999    
 0.009      0.001      2.         2.         0.002      1.         2.         0.         0.         2.        
 0.0090625  0.001      1.5238     152.38E-9  0.002      2.         0.         0.         0.         1.5238    
 0.0090972  0.001      1.073      107.3E-9   0.002      1.         0.         0.         0.         1.073     
 0.0091254  0.001      0.80769    80.769E-9  0.002      2.         0.         0.         0.         0.80769   
 0.0091536  0.001      0.60799    60.799E-9  0.002      1.         0.         0.         0.         0.60799   
 0.0091819  0.001      0.45767    45.767E-9  0.002      1.         0.         0.         0.         0.45767   
 0.0092101  0.001      0.34452    34.452E-9  0.002      1.         0.         0.         0.         0.34452   
 0.0092383  0.001      0.25934    25.934E-9  0.002      1.         0.         0.         0.         0.25934   
 0.0092665  0.001      0.19522    19.522E-9  0.002      1.         0.         0.         0.         0.19522   
 0.0092947  0.001      0.14695    14.695E-9  0.002      1.         0.         0.         0.         0.14695   
 0.0093229  0.001      0.11062    11.062E-9  0.002      1.         0.         0.         0.         0.11062   
 0.0093511  0.001      0.08327    8.327E-9   0.002      1.         0.         0.         0.         0.08327   
 0.0093793  0.001      0.062682   6.2682E-9  0.002      1.         0.         0.         0.         0.062682  
 0.0094076  0.001      0.047184   4.7184E-9  0.002      1.         0.         0.         0.         0.047184  
 0.0094358  0.001      0.035518   3.5518E-9  0.002      1.         0.         0.         0.         0.035518  
 0.009464   0.001      0.026737   2.6737E-9  0.002      1.         0.         0.         0.         0.026737  
 0.0094922  0.001      0.020126   2.0126E-9  0.002      1.         0.         0.         0.         0.020126  
 0.0095204  0.001      0.01515    1.515E-9   0.002      1.         0.         0.         0.         0.01515   
 0.0095486  0.001      0.011404   1.1404E-9  0.002      1.         0.         0.         0.         0.011404  
 0.0095768  0.001      0.0085848  858.5E-12  0.002      1.         0.         0.         0.         0.0085848 
 0.009605   0.001      0.0064623  646.2E-12  0.002      1.         0.         0.         0.         0.0064623 
 0.0096332  0.001      0.0048645  486.5E-12  0.002      1.         0.         0.         0.         0.0048645 
 0.0096615  0.001      0.0036618  366.2E-12  0.002      1.         0.         0.         0.         0.0036618 
 0.0096897  0.001      0.0027565  275.6E-12  0.002      1.         0.         0.         0.         0.0027565 
 0.0097179  0.001      0.0020749  207.5E-12  0.002      1.         0.         0.         0.         0.0020749 
 0.0097461  0.001      0.0015619  156.2E-12  0.002      1.         0.         0.         0.         0.0015619 
 0.0097743  0.001      0.0011758  117.6E-12  0.002      1.         0.         0.         0.         0.0011758 
