#Time       v(p)       v(pol)     c_(h1)    
 0.         0.         0.         0.0011856 
 0.01       0.033541   0.0016396  0.0024442 
 0.015756   0.068539   0.0033901  0.0025224 
 0.021512   0.113      0.0056726  0.002625  
 0.027267   0.16453    0.0084575  0.0027484 
 0.033023   0.22016    0.01158    0.0028873 
 0.038779   0.27654    0.014933   0.0030341 
 0.044535   0.33008    0.018242   0.0031795 
 0.050291   0.37717    0.021307   0.0033121 
 0.059166   0.42913    0.024781   0.0034638 
 0.068042   0.44647    0.02599    0.0035157 
 0.076918   0.42147    0.026423   41.79E-6  
 0.085794   0.35088    0.026362   44.639E-6 
 0.099043   0.16642    0.026176   52.94E-6  
 0.11229   -0.085335   0.025876   66.543E-6 
 0.11995   -0.24209    0.02565    76.491E-6 
 0.1276    -0.39229    0.025406   87.199E-6 
 0.13525   -0.52306    0.025165   97.502E-6 
 0.1429    -0.62184    0.024967   105.92E-6 
 0.15056   -0.67736    0.024847   110.9E-6  
 0.15821   -0.68055    0.025239   0.0011984 
 0.16586   -0.62536    0.026609   0.0012629 
 0.17351   -0.50944    0.029768   0.001409  
 0.18117   -0.33453    0.035178   0.0016598 
 0.18882   -0.10658    0.04377    0.0020481 
 0.19647    0.16431    0.05644    0.0026149 
 0.20412    0.46443    0.074656   0.0033961 
 0.21178    0.77714    0.098943   0.0044024 
 0.21943    1.0838     0.12961    0.0055829 
 0.22708    1.365      0.16412    0.0068184 
 0.23473    1.6016     0.19886    0.0079343 
 0.24239    1.7765     0.22769    0.0087782 
 0.25004    1.8753     0.24536    0.0092496 
 0.25769    1.8878     0.25174    94.174E-6 
 0.27197    1.6663     0.25124    117.07E-6 
 0.28118    1.362      0.25037    157.64E-6 
 0.2904     0.9532     0.24875    234.22E-6 
 0.29961    0.47117    0.24578    370.43E-6 
 0.30883   -0.044234   0.24082    595.59E-6 
 0.31574   -0.42557    0.23537    833.22E-6 
 0.32265   -0.7804     0.22851    0.0011198 
 0.32957   -1.0894     0.22072    0.0014226 
 0.33648   -1.3347     0.21319    0.0016954 
 0.34339   -1.501      0.20729    0.0018923 
 0.35381   -1.577      0.20372    405.37E-6 
 0.36423   -1.4242     0.20513    470.65E-6 
 0.37466   -1.0446     0.20975    680.2E-6  
 0.39156   -0.028512   0.23677    0.0017613 
 0.40242    0.7872     0.28062    0.0035468 
 0.4105     1.4134     0.33797    0.0056226 
 0.41857    2.0115     0.41822    0.0078892 
 0.42665    2.5414     0.50964    0.009496  
 0.43472    2.9658     0.59215    0.010022  
 0.4428     3.2533     0.64946    0.0098676 
 0.45087    3.3805     0.67448    0.0096679 
 0.46281    3.2492     0.68023    65.586E-6 
 0.47475    2.7421     0.67927    108.61E-6 
 0.48669    1.916      0.67616    245.95E-6 
 0.49862    0.87717    0.66625    675.89E-6 
 0.51056   -0.23209    0.63792    0.0018845 
 0.51776   -0.86809    0.60589    0.0032123 
 0.52496   -1.4368     0.56064    0.0048548 
 0.53215   -1.9059     0.50886    0.0063825 
 0.53935   -2.2477     0.46241    0.0074061 
 0.54655   -2.4402     0.43338    0.0078789 
 0.55375   -2.4689     0.42483    120.74E-6 
 0.56581   -2.136      0.42591    167.83E-6 
 0.5737    -1.6706     0.42801    265.4E-6  
 0.5816    -1.0345     0.43302    492.88E-6 
 0.58949   -0.2623     0.44501    0.0010236 
 0.59739    0.60209    0.4733     0.0021946 
 0.60358    1.3119     0.51569    0.0037781 
 0.60977    2.0206     0.5828     0.0056948 
 0.61597    2.7012     0.66915    0.0070446 
 0.62534    3.6189     0.79516    0.0066569 
 0.6324     4.1779     0.86282    0.0052442 
 0.63947    4.5881     0.90186    0.0040747 
 0.65149    4.8819     0.92573    0.0032226 
 0.66351    4.6232     0.92585    22.626E-6 
 0.67553    3.8316     0.9252     49.869E-6 
 0.68754    2.6048     0.92232    169.1E-6  
 0.69956    1.1072     0.9082     735.06E-6 
 0.71158   -0.45165    0.84967    0.0030816 
 0.71845   -1.2829     0.77597    0.0059067 
 0.72531   -2.0194     0.66731    0.0091011 
 0.73218   -2.6242     0.54646    0.011124  
 0.73905   -3.0658     0.44676    0.011536  
 0.74591   -3.3198     0.3886     0.011255  
 0.75278   -3.3703     0.37101    53.739E-6 
 0.75712   -3.2939     0.3711     57.989E-6 
 0.76146   -3.1338     0.3713     68.011E-6 
 0.76579   -2.892      0.37168    86.512E-6 
 0.78252   -1.2766     0.38171    423.51E-6 
 0.7946     0.38762    0.42332    0.0019707 
 0.8025     1.5822     0.50538    0.0048226 
 0.8104     2.7768     0.65394    0.0076898 
 0.8183     3.8977     0.81448    0.0065905 
 0.8262     4.8746     0.91705    0.0035959 
 0.8322     5.4806     0.95284    0.0021758 
 0.84338    6.2165     0.97953    984.2E-6  
 0.85121    6.3804     0.98273    834.97E-6 
 0.85905    6.2361     0.98284    4.7886E-6 
 0.87079    5.4554     0.9827     10.451E-6 
 0.88925    3.1018     0.97927    109.38E-6 
 0.90309    0.82885    0.95331    0.001014  
 0.91278   -0.77176    0.87012    0.0042307 
 0.91824   -1.609      0.77203    0.0076914 
 0.92369   -2.3683     0.63135    0.010958  
 0.92914   -3.026      0.48019    0.012161  
 0.93459   -3.5611     0.35432    0.01128   
 0.93868   -3.8714     0.28727    0.010127  
 0.94276   -4.0969     0.24354    0.0091288 
 0.94658   -4.2269     0.22029    0.0085172 
 0.9504    -4.2763     0.21191    0.0082839 
 0.95591   -4.2031     0.20943    29.399E-6 
 0.95958   -4.0592     0.20952    33.94E-6  
 0.96326   -3.8407     0.20969    42.213E-6 
 0.96938   -3.3171     0.21031    71.15E-6  
 0.97959   -2.0468     0.21488    250.81E-6 
 0.98979   -0.3871     0.24084    0.0012413 
 0.9949     0.5394     0.27919    0.0028352 
 1.         1.5        0.36225    0.0058171 
