>>>>>.options nopicky 
#Time     v(n1)    v(nv)   
 0.       0.       0.      
 500.u    0.       0.      
 0.001    0.       0.      
 0.0015   0.0909   0.5     
 0.002    0.321    1.      
 0.0025   0.544    1.      
 0.003    0.7      1.      
 0.0035   0.803    1.      
 0.004    0.871    1.      
 0.0045   0.916    1.      
 0.005    0.945    1.      
 0.0055   0.869    0.5     
 0.006    0.653    21.8n   
 0.0065   0.433    14.4n   
 0.007    0.285    9.5n    
 0.0075   0.187    6.23n   
 0.008    0.122    4.08n   
 0.0085   0.0802   2.67n   
 0.009    0.0525   1.75n   
 0.0095   0.0344   1.15n   
 0.01     0.0226   752.p   
Gnucap   System status
iterations: op=0, dc=0, tran=184, fourier=0, total=232
transient timesteps: accepted=44, rejected=4, total=48
nodes: user=2, subckt=0, model=0, total=2
dctran density=100.0%, ac density=100.0%
