>>>>>.options nopicky 
#Time     v(n1)    v(nv)   
 0.       0.       0.      
 500.u    0.       0.      
 0.001    0.       0.      
 0.0015   0.0908   0.5     
 0.002    0.321    1.      
 0.0025   0.553    1.      
 0.003    0.706    1.      
 0.0035   0.807    1.      
 0.004    0.874    1.      
 0.0045   0.917    1.      
 0.005    0.946    1.      
 0.0055   0.878    0.5     
 0.006    0.662    22.1n   
 0.0065   0.434    14.5n   
 0.007    0.284    9.48n   
 0.0075   0.187    6.24n   
 0.008    0.123    4.09n   
 0.0085   0.0803   2.68n   
 0.009    0.0526   1.75n   
 0.0095   0.0345   1.15n   
 0.01     0.0226   753.p   
Gnucap   System status
iterations: op=0, dc=0, tran=157, fourier=0, total=198
transient timesteps: accepted=39, rejected=2, total=41
nodes: user=2, subckt=0, model=0, total=2
dctran density=100.0%, ac density=100.0%
