.print dc v(nodes) i(R*) 
                     ^ ? no match
#           v(n1)      v(nint)   
 0.         0.         0.        
.model myint integrator ( gain=1k)
int1 ( nint 0 n1 0 )  myint 
V1 ( n1 0 ) pulse iv= 0. pv= 1. delay= 0. rise= 0.001 fall=NA( 0.) width= 0.003 period= 0.005
#Time       v(n1)      v(nint)    state0(int1)
 0.         0.         0.         0.        
 100.E-6    0.1        0.005      5.E-6     
 200.E-6    0.2        0.02       20.E-6    
 300.E-6    0.3        0.045      45.E-6    
 400.E-6    0.4        0.08       80.E-6    
 500.E-6    0.5        0.125      125.E-6   
 0.001      1.         0.5        500.E-6   
 0.0018182  1.         1.3182     0.0013182 
 0.0024476  1.         1.9476     0.0019476 
 0.0030769  1.         2.5769     0.0025769 
 0.004      0.         3.0385     0.0030385 
 0.0040049  0.         3.0385     0.0030385 
 0.0040097  0.         3.0385     0.0030385 
 0.0040129  0.         3.0385     0.0030385 
 0.0040162  0.         3.0385     0.0030385 
 0.005      0.         3.0385     0.0030385 
 0.006      1.         3.5385     0.0035385 
 0.007      1.         4.5385     0.0045385 
 0.00775    1.         5.2885     0.0052885 
 0.0085     1.         6.0385     0.0060385 
 0.009      0.         6.2885     0.0062885 
 0.0090027  0.         6.2885     0.0062885 
 0.0090054  0.         6.2885     0.0062885 
 0.0090071  0.         6.2885     0.0062885 
 0.0090087  0.         6.2885     0.0062885 
 0.01       0.         6.2885     0.0062885 
