#Time       v(n1)      v(nint)    state0(int1) hidden(0) 
 0.         0.         0.         0.         0.        
 0.001      0.5        0.0325     250.E-6    3.        
 0.002      1.         0.13       0.001      0.        
 0.003      1.         0.26       0.002      0.        
 0.004      1.         0.39       0.003      0.        
 0.005      1.         0.52       0.004      0.        
 0.006      1.         0.65       0.005      0.        
 0.007      1.         0.78       0.006      0.        
 0.008      1.         0.91       0.007      0.        
 0.009      1.         1.04       0.008      0.        
 0.01       1.         1.17       0.009      0.        
#Time       v(n1)      v(nint)    state0(int1) hidden(0) 
 0.01       1.         1.17       0.009      0.        
 0.011     -3.E-15     1.235      0.0095     2.        
 0.012     -1.         1.17       0.009      1.        
 0.013     -1.         1.04       0.008      0.        
 0.014     -1.         0.91       0.007      0.        
 0.015     -1.         0.78       0.006      1.        
 0.016     -1.         0.65       0.005      0.        
 0.017     -1.         0.52       0.004      0.        
 0.018     -1.         0.39       0.003      0.        
 0.019     -1.         0.26       0.002      0.        
 0.02      -1.         0.13       0.001      0.        
 0.021     -1.        -1.E-15    -10.41E-18  0.        
 0.022     -1.        -0.13      -0.001      0.        
 0.023     -1.        -0.26      -0.002      0.        
 0.024     -1.        -0.39      -0.003      0.        
 0.025     -1.        -0.52      -0.004      0.        
 0.026     -1.        -0.65      -0.005      0.        
 0.027     -1.        -0.78      -0.006      0.        
 0.028     -1.        -0.91      -0.007      0.        
 0.029     -1.        -1.04      -0.008      0.        
 0.03      -1.        -1.17      -0.009      0.        
Gnucap   System status
iterations: op=0, dc=0, tran=79, fourier=0, total=165
transient timesteps: accepted=39, rejected=0, total=39
nodes: user=2, subckt=0, model=1, total=3
dctran density=100.0%, ac density=100.0%
