#Time       v(n1)      v(nint)    state0(int1) hidden(0) 
 0.         0.         0.         0.         1.        
 0.001      0.5        0.0325     250.E-6    2.        
 0.002      1.         0.13       0.001      2.        
 0.003      1.         0.26       0.002      2.        
 0.004      1.         0.39       0.003      1.        
 0.005      1.         0.52       0.004      1.        
 0.006      1.         0.65       0.005      1.        
 0.007      1.         0.78       0.006      1.        
 0.008      1.         0.91       0.007      1.        
 0.009      1.         1.04       0.008      1.        
 0.01       1.         1.17       0.009      1.        
#Time       v(n1)      v(nint)    state0(int1) hidden(0) 
 0.01       1.         1.17       0.009      1.        
 0.011     -3.E-15     1.235      0.0095     5.        
 0.012     -1.         1.17       0.009      1.        
 0.013     -1.         1.04       0.008      1.        
 0.014     -1.         0.91       0.007      1.        
 0.015     -1.         0.78       0.006      1.        
 0.016     -1.         0.65       0.005      1.        
 0.017     -1.         0.52       0.004      1.        
 0.018     -1.         0.39       0.003      1.        
 0.019     -1.         0.26       0.002      1.        
 0.02      -1.         0.13       0.001      1.        
 0.021     -1.        -6.E-15    -43.37E-18  1.        
 0.022     -1.        -0.13      -0.001      1.        
 0.023     -1.        -0.26      -0.002      1.        
 0.024     -1.        -0.39      -0.003      1.        
 0.025     -1.        -0.52      -0.004      1.        
 0.026     -1.        -0.65      -0.005      1.        
 0.027     -1.        -0.78      -0.006      1.        
 0.028     -1.        -0.91      -0.007      1.        
 0.029     -1.        -1.04      -0.008      1.        
 0.03      -1.        -1.17      -0.009      1.        
Gnucap   System status
iterations: op=0, dc=0, tran=80, fourier=0, total=164
transient timesteps: accepted=38, rejected=1, total=39
nodes: user=2, subckt=0, model=1, total=3
dctran density=100.0%, ac density=55.6%
