name   ...
have 2 nodes. model: 1 sckt: 0 adp 0

ndd      ndd matrix_number 2, user_number 1 nm[t]  vdc  0.
-H1
t1    H1.t1 matrix_number 1, user_number 2 nm[t]  vdc  0.
#           v(ndd)     temp(H1)   v(H1.t1)   reff(H1)   P_el(H1)   P_rad(H1)  P_thc(H1)  ambient(H1) state0(H1)
 0.         0.         0.         0.         0.         0.         0.         0.         0.         0.        
-1.         0.         273.15     31.274     45.95      0.        -0.0025494  0.         300.15     0.027315  
-2.         0.         304.42     27.089     50.641     0.         472.21u    0.         300.15     0.030442  
-3.         0.         300.24     27.        50.013     0.         9.6473u    0.         300.15     0.030024  
-4.         0.         300.15     27.        50.        0.         4.3212n    0.         300.15     0.030015  
 0.         0.         300.15     27.        50.        0.         27.001p    0.         300.15     0.030015  
#Time       v(ndd)     temp(H1)   v(H1.t1)   reff(H1)   P_el(H1)   P_rad(H1)  P_thc(H1)  ambient(H1) state0(H1)
 0.         0.         300.15     27.        50.        0.         27.001p    0.         300.15     0.030015  
 0.1        230.       3.2255K    2.9524K    488.81     108.22     108.24     0.         300.15     0.32255   
 0.2        230.       3.2254K    2.9522K    488.78     108.23     108.21     0.         300.15     0.32254   
 0.3        230.       3.2255K    2.9524K    488.81     108.22     108.24     0.         300.15     0.32255   
 0.4        230.       3.2254K    2.9522K    488.78     108.23     108.21     0.         300.15     0.32254   
 0.5        230.       3.2255K    2.9524K    488.81     108.22     108.24     0.         300.15     0.32255   
 0.6        230.       3.2254K    2.9522K    488.78     108.23     108.22     0.         300.15     0.32254   
 0.7        230.       3.2255K    2.9524K    488.81     108.22     108.24     0.         300.15     0.32255   
 0.8        230.       3.2254K    2.9522K    488.78     108.23     108.22     0.         300.15     0.32254   
 0.9        230.       3.2255K    2.9524K    488.81     108.22     108.23     0.         300.15     0.32255   
 1.         230.       3.2254K    2.9522K    488.78     108.23     108.22     0.         300.15     0.32254   
t1= 3.225528K
#Time       v(ndd)     temp(H1)   v(H1.t1)   reff(H1)   P_el(H1)   P_rad(H1)  P_thc(H1)  ambient(H1) state0(H1)
 1.         230.       3.2254K    2.9522K    488.78     108.23     108.22     0.         300.15     0.32254   
 1.1        0.         706.59     433.44     110.97     0.         0.24116    0.         300.15     0.070659  
 1.2        0.         559.54     286.39     88.908     0.         0.089905   0.         300.15     0.055954  
 1.3        0.         491.77     218.62     78.743     0.         0.050369   0.         300.15     0.049177  
 1.4        0.         450.73     177.58     72.588     0.         0.033158   0.         300.15     0.045073  
 1.5        0.         422.31     149.16     68.324     0.         0.023691   0.         300.15     0.042231  
 1.6        0.         401.53     128.38     65.206     0.         0.017877   0.         300.15     0.040153  
 1.7        0.         385.59     112.44     62.816     0.         0.01399    0.         300.15     0.038559  
 1.8        0.         372.98     99.829     60.924     0.         0.011236   0.         300.15     0.037298  
 1.9        0.         362.76     89.61      59.392     0.         0.0092011  0.         300.15     0.036276  
 2.         0.         354.34     81.186     58.128     0.         0.0076476  0.         300.15     0.035434  
t2= 422.3091
Gnucap   System status
iterations: op=0, dc=5, tran=139, fourier=0, total=319
transient timesteps: accepted=59, rejected=2, total=61
nodes: user=1, subckt=0, model=1, total=2
dctran density=100.0%, ac density=100.0%
