.print tran v(nodes) temp(H1) v(H1.nodes) reff(H1) P_el(H1) P_rad(H1) 
                                ^ ? no match
.print dc v(nodes) temp(H1) v(H1.nodes) reff(H1) P_el(H1) P_rad(H1) P_
                              ^ ? no match
name   ...
have 2 nodes. model: 1 sckt: 0

ndd      ndd matrix_number 2, user_number 1 nm[t]  vdc 
t1       t1 matrix_number 1, user_number 2 nm[t]  vdc 
-H1
#           v(ndd)     v(t1)      temp(H1)   reff(H1)   P_el(H1)   P_rad(H1)  P_thc(H1)  ambient(H1) state0(H1)
 0.         0.         0.         0.         0.         0.         0.         0.         0.         0.        
-1.         0.         31.274     273.15     45.95      0.        -0.0025494  0.         300.15     0.027315  
-2.         0.         27.089     304.42     50.641     0.         472.21u    0.         300.15     0.030442  
-3.         0.         27.        300.24     50.013     0.         9.6473u    0.         300.15     0.030024  
-4.         0.         27.        300.15     50.        0.         4.3212n    0.         300.15     0.030015  
 0.         0.         27.        300.15     50.        0.         27.001p    0.         300.15     0.030015  
#Time       v(ndd)     v(t1)      temp(H1)   reff(H1)   P_el(H1)   P_rad(H1)  P_thc(H1)  ambient(H1) state0(H1)
 0.         0.         27.        300.15     50.        0.         27.001p    0.         300.15     0.030015  
 0.1        230.       2.9521K    3.2252K    488.76     108.23     108.19     0.         300.15     0.32252   
 0.2        230.       2.9525K    3.2257K    488.83     108.22     108.26     0.         300.15     0.32257   
 0.3        230.       2.9521K    3.2252K    488.76     108.23     108.19     0.         300.15     0.32252   
 0.4        230.       2.9525K    3.2257K    488.83     108.22     108.26     0.         300.15     0.32257   
 0.5        230.       2.9521K    3.2252K    488.76     108.23     108.2      0.         300.15     0.32252   
 0.6        230.       2.9525K    3.2257K    488.83     108.22     108.25     0.         300.15     0.32257   
 0.7        230.       2.9521K    3.2252K    488.76     108.23     108.2      0.         300.15     0.32252   
 0.8        230.       2.9525K    3.2257K    488.83     108.22     108.25     0.         300.15     0.32257   
 0.9        230.       2.9521K    3.2253K    488.77     108.23     108.2      0.         300.15     0.32253   
 1.         230.       2.9525K    3.2256K    488.82     108.22     108.25     0.         300.15     0.32256   
t1= 3.22523034337514K
#Time       v(ndd)     v(t1)      temp(H1)   reff(H1)   P_el(H1)   P_rad(H1)  P_thc(H1)  ambient(H1) state0(H1)
 1.         230.       2.9525K    3.2256K    488.82     108.22     108.25     0.         300.15     0.32256   
 1.1        0.         434.13     707.28     111.07     0.         0.24213    0.         300.15     0.070728  
 1.2        0.         287.26     560.41     89.038     0.         0.090514   0.         300.15     0.056041  
 1.3        0.         219.1      492.25     78.815     0.         0.050598   0.         300.15     0.049225  
 1.4        0.         177.28     450.43     72.542     0.         0.033046   0.         300.15     0.045043  
 1.5        0.         148.94     422.09     68.291     0.         0.023625   0.         300.15     0.042209  
 1.6        0.         128.21     401.36     65.182     0.         0.017834   0.         300.15     0.040136  
 1.7        0.         112.31     385.46     62.797     0.         0.013961   0.         300.15     0.038546  
 1.8        0.         99.727     372.88     60.909     0.         0.011215   0.         300.15     0.037288  
 1.9        0.         89.527     362.68     59.379     0.         0.0091851  0.         300.15     0.036268  
 2.         0.         81.117     354.27     58.117     0.         0.0076352  0.         300.15     0.035427  
t2= 422.09220598054
Gnucap   System status
iterations: op=0, dc=5, tran=147, fourier=0, total=331
transient timesteps: accepted=62, rejected=2, total=64
nodes: user=1, subckt=0, model=1, total=2
dctran density=100.0%, ac density=100.0%
