name   ...
have 3 nodes. model: 1 sckt: 0

nin      nin matrix_number 2, user_number 2 nm[t]  vdc 
nout     nout matrix_number 3, user_number 1 nm[t]  vdc 
-p1
p1.v_out_gnd.br p1.v_out_gnd.br matrix_number 3, user_number 1 nm[t]  vdc 
.model mylimit limit ( gain=1 thresh=NA( 0.))
p1 ( nout nin )  mylimit 
.print dc v(nodes) i(R*) 
                     ^ ? no match
#           v(nin)     v(nout)   
 0.         0.         0.        
#Time       v(nin)     v(nout)   
 0.         0.         0.        
 0.01       0.12533    0.12533   
 0.02       0.24869    0.24869   
 0.036333   0.44088    0.44088   
 0.08987    0.90413    0.90413   
 0.125      1.         1.        
 0.19792    0.60876    0.60876   
 0.25       0.         0.        
 0.30208   -0.60876    0.        
 0.375     -1.         0.        
 0.44792   -0.60876    0.        
 0.5        0.         0.        
 0.57143    0.78183    0.78183   
 0.625      1.         1.        
 0.71875    0.38268    0.38268   
 0.75       0.         0.        
 0.8125    -0.70711    0.        
 0.875     -1.         0.        
 0.9375    -0.70711    0.        
 1.         0.         0.        
