name   ...
have 3 nodes. model: 1 sckt: 0

n1       n1 matrix_number 3, user_number 1 nm[t]  vdc 
nin      nin matrix_number 2, user_number 2 nm[t]  vdc 
-p1
p1.v_out_gnd.br p1.v_out_gnd.br matrix_number 3, user_number 1 nm[t]  vdc 
.model mylog log_ ( gain=2 hi=100 lo=1)
p1 ( n1 nin )  mylog 
.print dc v(nodes) i(R*) 
                     ^ ? no match
#           v(n1)      v(nin)    
 0.         0.         0.        
#Time       v(n1)      v(nin)    
 0.         0.         0.        
 0.001      0.0043121  0.01      
 0.002      0.0085816  0.02      
 0.0036333  0.015466   0.036333  
 0.1        0.30038    1.        
 0.2        0.47609    2.        
 0.3        0.60076    3.        
 0.4        0.69746    4.        
 0.5        0.77647    5.        
 0.6        0.84328    6.        
 0.7        0.90114    7.        
 0.8        0.95219    8.        
 0.9        0.99784    9.        
 1.         1.0391     10.       
 1.1        1.0769     11.       
 1.2        1.1115     12.       
 1.3        1.1437     13.       
 1.4        1.1736     14.       
 1.5        1.2015     15.       
 1.6        1.2278     16.       
 1.7        1.2526     17.       
 1.8        1.276      18.       
 1.9        1.2982     19.       
 2.         1.3194     20.       
 2.1        1.3395     21.       
 2.2        1.3588     22.       
 2.3        1.3772     23.       
 2.4        1.3949     24.       
 2.5        1.4119     25.       
 2.6        1.4283     26.       
 2.7        1.444      27.       
 2.8        1.4592     28.       
 2.9        1.4739     29.       
 3.         1.4881     30.       
 3.1        1.5019     31.       
 3.2        1.5152     32.       
 3.3        1.5282     33.       
 3.4        1.5407     34.       
 3.5        1.5529     35.       
 3.6        1.5648     36.       
 3.7        1.5764     37.       
 3.8        1.5876     38.       
 3.9        1.5986     39.       
 4.         1.6093     40.       
 4.1        1.6197     41.       
 4.2        1.6299     42.       
 4.3        1.6399     43.       
 4.4        1.6496     44.       
 4.5        1.6592     45.       
 4.6        1.6685     46.       
 4.7        1.6776     47.       
 4.8        1.6866     48.       
 4.9        1.6953     49.       
 5.         1.7039     50.       
 5.1        1.7123     51.       
 5.2        1.7206     52.       
 5.3        1.7287     53.       
 5.4        1.7366     54.       
 5.5        1.7444     55.       
 5.6        1.7521     56.       
 5.7        1.7596     57.       
 5.8        1.767      58.       
 5.9        1.7743     59.       
 6.         1.7815     60.       
 6.1        1.7885     61.       
 6.2        1.7955     62.       
 6.3        1.8023     63.       
 6.4        1.809      64.       
 6.5        1.8156     65.       
 6.6        1.8221     66.       
 6.7        1.8286     67.       
 6.8        1.8349     68.       
 6.9        1.8411     69.       
 7.         1.8473     70.       
 7.1        1.8533     71.       
 7.2        1.8593     72.       
 7.3        1.8652     73.       
 7.4        1.871      74.       
 7.5        1.8768     75.       
 7.6        1.8824     76.       
 7.7        1.888      77.       
 7.8        1.8935     78.       
 7.9        1.899      79.       
 8.         1.9044     80.       
 8.1        1.9097     81.       
 8.2        1.9149     82.       
 8.3        1.9201     83.       
 8.4        1.9253     84.       
 8.5        1.9303     85.       
 8.6        1.9353     86.       
 8.7        1.9403     87.       
 8.8        1.9452     88.       
 8.9        1.95       89.       
 9.         1.9548     90.       
 9.1        1.9596     91.       
 9.2        1.9642     92.       
 9.3        1.9689     93.       
 9.4        1.9735     94.       
 9.5        1.978      95.       
 9.6        1.9825     96.       
 9.7        1.9869     97.       
 9.8        1.9913     98.       
 9.9        1.9957     99.       
 10.        2.         100.      
