#           v(ndd)     omega(M1)  v(M1.p2)   v(M1.t1)   reff(M1)   P_el(M1)   P_rad(M1)  P_rot(M1)  v(nsens)   state0(M1)
 0.         0.         0.         0.         0.         0.         0.         ??         0.         0.         0.        
#Time       v(M1.l1)   v(ndd)     I(M1)      I(R1)      omega(M1)  v(nsens)   P_fric(M1) state0(M1) v(nsens)   hidden(0)  method(M1.l1)
 0.         0.         0.         0.         0.         0.         0.         0.         0.         0.         1.        -1.        
 0.05       924.84u    0.5        0.         0.045703   3.6586     0.0073171  0.036586   365.86u    0.0073171  16.        2.        
 0.1        900.34u    1.         0.         0.091576   8.24       0.01648    0.0824     824.u      0.01648    3.         2.        
 0.15       3.4624u    1.         0.         0.091742   9.168      0.018336   0.09168    916.8u     0.018336   17.        2.        
 0.2        5.6908n    1.         0.         0.091743   9.1743     0.018349   0.091743   917.43u    0.018349   27.        2.        
 0.25       563.21p    1.         0.         0.091743   9.1743     0.018349   0.091743   917.43u    0.018349   18.        2.        
 0.3        3.4456p    1.         0.         0.091743   9.1743     0.018349   0.091743   917.43u    0.018349   22.        2.        
 0.35       241.96f    1.         0.         0.091743   9.1743     0.018349   0.091743   917.43u    0.018349   18.        2.        
 0.4        184.35f    1.         0.         0.091743   9.1743     0.018349   0.091743   917.43u    0.018349   6.         2.        
 0.45      -172.76f    1.         0.         0.091743   9.1743     0.018349   0.091743   917.43u    0.018349   3.         2.        
 0.5       -167.88f    1.         0.         0.091743   9.1743     0.018349   0.091743   917.43u    0.018349   2.         2.        
 0.55      -163.09f    1.         0.         0.091743   9.1743     0.018349   0.091743   917.43u    0.018349   2.         2.        
 0.6       -158.44f    1.         0.         0.091743   9.1743     0.018349   0.091743   917.43u    0.018349   2.         2.        
 0.65      -153.93f    1.         0.         0.091743   9.1743     0.018349   0.091743   917.43u    0.018349   2.         2.        
 0.7       -149.59f    1.         0.         0.091743   9.1743     0.018349   0.091743   917.43u    0.018349   2.         2.        
 0.75      -145.31f    1.         0.         0.091743   9.1743     0.018349   0.091743   917.43u    0.018349   2.         2.        
 0.8       -141.21f    1.         0.         0.091743   9.1743     0.018349   0.091743   917.43u    0.018349   2.         2.        
 0.85      -137.22f    1.         0.         0.091743   9.1743     0.018349   0.091743   917.43u    0.018349   2.         2.        
 0.9        136.22f    1.         0.         0.091743   9.1743     0.018349   0.091743   917.43u    0.018349   1.         2.        
 0.95      -135.27f    1.         0.         0.091743   9.1743     0.018349   0.091743   917.43u    0.018349   1.         2.        
 1.         134.3f     1.         0.         0.091743   9.1743     0.018349   0.091743   917.43u    0.018349   1.         2.        
t1= 9.174304
#Time       v(M1.l1)   v(ndd)     I(M1)      I(R1)      omega(M1)  v(nsens)   P_fric(M1) state0(M1) v(nsens)   hidden(0)  method(M1.l1)
 1.         134.3f     1.         0.         0.091743   9.1743     0.018349   0.091743   917.43u    0.018349   1.         2.        
 1.05      -184.46u    0.9        0.         0.082602   8.4426     0.016885   0.084426   844.26u    0.016885   16.        2.        
 1.1       -188.53u    0.8        0.         0.073429   7.5263     0.015054   0.075263   752.63u    0.015054   3.         2.        
 1.15      -189.3u     0.7        0.         0.064254   6.6089     0.01322    0.066089   660.89u    0.01322    2.         2.        
 1.2       -182.65u    0.6        0.         0.055079   5.6915     0.011383   0.056915   569.15u    0.011383   1.         2.        
 1.25      -184.35u    0.5        0.         0.045905   4.774      0.0095481  0.04774    477.4u     0.0095481  1.         2.        
 1.3       -182.67u    0.4        0.         0.036731   3.8566     0.0077132  0.038566   385.66u    0.0077132  1.         2.        
 1.35      -184.34u    0.3        0.         0.027557   2.9391     0.0058783  0.029391   293.91u    0.0058783  1.         2.        
 1.4       -182.68u    0.2        0.         0.018382   2.0217     0.0040435  0.020217   202.17u    0.0040435  1.         2.        
 1.45      -184.33u    0.1        0.         0.009208   1.1043     0.0022086  0.011043   110.43u    0.0022086  1.         2.        
 1.5       -182.69u   -335.95p    0.         33.595u    0.18685    373.71u    0.0018685  18.685u    373.71u    1.         2.        
 1.55      -184.28u   -0.1        0.        -0.0091406 -0.73058   -0.0014611 -0.0073058 -73.058u   -0.0014611  1.         2.        
 1.6       -182.74u   -0.2        0.        -0.018315  -1.648     -0.003296  -0.01648   -164.8u    -0.003296   1.         2.        
 1.65      -184.26u   -0.3        0.        -0.027489  -2.5654    -0.0051308 -0.025654  -256.54u   -0.0051308  1.         2.        
 1.7       -182.76u   -0.4        0.        -0.036664  -3.4829    -0.0069657 -0.034829  -348.29u   -0.0069657  1.         2.        
 1.75      -184.25u   -0.5        0.        -0.045838  -4.4003    -0.0088005 -0.044003  -440.03u   -0.0088005  1.         2.        
 1.8       -182.77u   -0.6        0.        -0.055012  -5.3177    -0.010635  -0.053177  -531.77u   -0.010635   1.         2.        
 1.85      -184.24u   -0.7        0.        -0.064186  -6.2351    -0.01247   -0.062351  -623.51u   -0.01247    1.         2.        
 1.9       -182.78u   -0.8        0.        -0.073361  -7.1526    -0.014305  -0.071526  -715.26u   -0.014305   1.         2.        
 1.95      -184.23u   -0.9        0.        -0.082535  -8.07      -0.01614   -0.0807    -807.u     -0.01614    1.         2.        
 2.        -182.77u   -1.         0.        -0.091709  -8.9874    -0.017966  -0.089874  -898.74u   -0.017966   1.         2.        
t2= 0.1868538
s2= 373.7077u
#Time       v(M1.l1)   v(ndd)     I(M1)      I(R1)      omega(M1)  v(nsens)   P_fric(M1) state0(M1) v(nsens)   hidden(0)  method(M1.l1)
 2.        -182.79u   -1.         0.        -0.091709  -8.9875    -0.017976  -0.089875  -898.75u   -0.017976   1.         2.        
 2.05       82.397u   -0.95       0.        -0.087172  -8.8073    -0.017615  -0.088073  -880.73u   -0.017615   14.        2.        
 2.1        83.055u   -0.9        0.        -0.082585  -8.3503    -0.016701  -0.083503  -835.03u   -0.016701   4.         2.        
 2.15       84.066u   -0.85       0.        -0.077998  -7.8916    -0.015784  -0.078916  -789.16u   -0.015784   2.         2.        
 2.2        84.334u   -0.8        0.        -0.073411  -7.4329    -0.014867  -0.074329  -743.29u   -0.014867   2.         2.        
 2.25       101.56u   -0.75       0.        -0.068825  -6.9742    -0.013953  -0.069742  -697.42u   -0.013953   1.         2.        
 2.3        85.293u   -0.7        0.        -0.064237  -6.5155    -0.013035  -0.065155  -651.55u   -0.013035   1.         2.        
 2.35       101.44u   -0.65       0.        -0.059651  -6.0568    -0.012118  -0.060568  -605.68u   -0.012118   1.         2.        
 2.4        85.41u    -0.6        0.        -0.055062  -5.5981    -0.0112    -0.055981  -559.81u   -0.0112     1.         2.        
 2.45       101.33u   -0.55       0.        -0.050477  -5.1393    -0.010283  -0.051393  -513.93u   -0.010283   1.         2.        
 2.5        85.525u   -0.5        0.        -0.045888  -4.6806    -0.0093654 -0.046806  -468.06u   -0.0093654  1.         2.        
 2.55       101.22u   -0.45       0.        -0.041302  -4.2219    -0.0084438 -0.042219  -422.19u   -0.0084438  1.         2.        
 2.6        82.35u    -0.4        0.        -0.036713  -3.7632    -0.0075263 -0.037632  -376.32u   -0.0075263  1.         2.        
 2.65       101.09u   -0.35       0.        -0.032128  -3.3045    -0.0066089 -0.033045  -330.45u   -0.0066089  1.         2.        
 2.7        82.486u   -0.3        0.        -0.027539  -2.8457    -0.0056915 -0.028457  -284.57u   -0.0056915  1.         2.        
 2.75       100.95u   -0.25       0.        -0.022953  -2.387     -0.0047741 -0.02387   -238.7u    -0.0047741  1.         2.        
 2.8        82.62u    -0.2        0.        -0.018365  -1.9283    -0.0038566 -0.019283  -192.83u   -0.0038566  1.         2.        
 2.85       100.82u   -0.15       0.        -0.013779  -1.4696    -0.0029392 -0.014696  -146.96u   -0.0029392  1.         2.        
 2.9        82.752u   -0.1        0.        -0.0091903 -1.0109    -0.0020217 -0.010109  -101.09u   -0.0020217  1.         2.        
 2.95       100.69u   -0.05       0.        -0.0046048 -0.55214   -0.0011043 -0.0055214 -55.214u   -0.0011043  1.         2.        
 3.         82.882u    160.28p    0.        -16.028u   -0.093428  -186.86u   -934.28u   -9.3428u   -186.86u    1.         2.        
 3.05       5.8521n    571.f      0.        -57.062n   -621.83u   -1.2437u   -6.2183u   -62.183n   -1.2437u    31.        2.        
 3.1       -14.183p    4.f        0.        -373.95p   -4.1254u   -8.2553n   -41.254n   -412.54p   -8.2553n    13.        2.        
 3.15       6.4314p    0.         0.        -3.0988p   -27.656n   -55.312p   -276.56p   -2.7656p   -55.312p    15.        2.        
 3.2        735.97f    0.         0.        -83.524f   -182.8p    -366.f     -1.828p    -18.28f    -366.f      17.        2.        
 3.25      -172.1f     0.         0.         15.457f   -2.0722p   -4.f       -20.722f   -207.2E-18 -4.f        13.        2.        
 3.3        160.87f    0.         0.        -14.488f    1.4957p    3.f        14.957f    149.6E-18  3.f        3.         2.        
 3.35       156.25f    0.         0.        -14.348f   -1.579p    -3.f       -15.79f    -157.9E-18 -3.f        2.         2.        
 3.4       -155.15f    0.         0.         13.981f   -1.3628p   -3.f       -13.628f   -136.3E-18 -3.f        1.         2.        
 3.45       154.04f    0.         0.        -13.953f    557.82f    1.f        5.5782f    55.78E-18  1.f        1.         2.        
 3.5       -152.92f    0.         0.         14.061f    1.7511p    4.f        17.511f    175.1E-18  4.f        1.         2.        
 3.55       151.83f    0.         0.        -13.69f     1.2454p    2.f        12.454f    124.5E-18  2.f        1.         2.        
 3.6       -150.74f    0.         0.         13.658f   -507.22f   -1.f       -5.0722f   -50.72E-18 -1.f        1.         2.        
 3.65       149.65f    0.         0.        -13.762f   -1.7308p   -3.f       -17.308f   -173.1E-18 -3.f        1.         2.        
 3.7       -148.58f    0.         0.         13.397f   -1.2116p   -2.f       -12.116f   -121.2E-18 -2.f        1.         2.        
 3.75       147.52f    0.         0.        -13.366f    493.23f    1.f        4.9323f    49.32E-18  1.f        1.         2.        
 3.8       -146.44f    0.         0.         13.467f    1.6952p    3.f        16.952f    169.5E-18  3.f        1.         2.        
 3.85       145.4f     0.         0.        -13.111f    1.1851p    2.f        11.851f    118.5E-18  2.f        1.         2.        
 3.9       -144.36f    0.         0.         13.08f    -482.42f   -1.f       -4.8242f   -48.24E-18 -1.f        1.         2.        
 3.95       143.31f    0.         0.        -13.179f   -1.659p    -3.f       -16.59f    -165.9E-18 -3.f        1.         2.        
 4.        -142.29f    0.         0.         12.83f    -1.1597p   -2.f       -11.597f   -116.E-18  -2.f        1.         2.        
 4.05       141.27f    0.         0.        -12.8f      472.08f    1.f        4.7208f    47.21E-18  1.f        1.         2.        
 4.1       -140.25f    0.         0.         12.897f    1.6236p    3.f        16.236f    162.4E-18  3.f        1.         2.        
 4.15       139.25f    0.         0.        -12.556f    1.1348p    2.f        11.348f    113.5E-18  2.f        1.         2.        
 4.2       -138.25f    0.         0.         12.526f   -461.98f   -1.f       -4.6198f   -46.2E-18  -1.f        1.         2.        
 4.25       137.25f    0.         0.        -12.621f   -1.5888p   -3.f       -15.888f   -158.9E-18 -3.f        1.         2.        
 4.3       -136.27f    0.         0.         12.287f   -1.1106p   -2.f       -11.106f   -111.1E-18 -2.f        1.         2.        
 4.35       135.29f    0.         0.        -12.258f    452.1f     1.f        4.521f     45.21E-18  1.f        1.         2.        
 4.4       -134.31f    0.         0.         12.351f    1.5548p    3.f        15.548f    155.5E-18  3.f        1.         2.        
 4.45       133.35f    0.         0.        -12.024f    1.0868p    2.f        10.868f    108.7E-18  2.f        1.         2.        
 4.5       -132.4f     0.         0.         11.996f   -442.42f   -1.f       -4.4242f   -44.24E-18 -1.f        1.         2.        
 4.55       131.44f    0.         0.        -12.087f   -1.5216p   -3.f       -15.216f   -152.2E-18 -3.f        1.         2.        
 4.6       -130.5f     0.         0.         11.767f   -1.0636p   -2.f       -10.636f   -106.4E-18 -2.f        1.         2.        
 4.65       129.56f    0.         0.        -11.739f    432.96f    1.f        4.3296f    43.3E-18   1.f        1.         2.        
 4.7       -128.62f    0.         0.         11.828f    1.489p     3.f        14.89f     148.9E-18  3.f        1.         2.        
 4.75       127.71f    0.         0.        -11.515f    1.0408p    2.f        10.408f    104.1E-18  2.f        1.         2.        
 4.8       -126.79f    0.         0.         11.488f   -423.69f   -1.f       -4.2369f   -42.37E-18 -1.f        1.         2.        
 4.85       125.87f    0.         0.        -11.575f   -1.4572p   -3.f       -14.572f   -145.7E-18 -3.f        1.         2.        
 4.9       -124.98f    0.         0.         11.269f   -1.0185p   -2.f       -10.185f   -101.9E-18 -2.f        1.         2.        
 4.95       124.08f    0.         0.        -11.242f    414.63f    1.f        4.1463f    41.46E-18  1.f        1.         2.        
 5.        -123.18f    0.         0.         11.328f    1.426p     3.f        14.26f     142.6E-18  3.f        1.         2.        
t3= 1.751063p
Gnucap   System status
iterations: op=0, dc=3, tran=744, fourier=0, total=1811
transient timesteps: accepted=344, rejected=11, total=355
nodes: user=3, subckt=0, model=3, total=6
dctran density=66.7%, ac density=50.0%
