#           v(ndd)     omega(M1)  v(M1.p2)   v(M1.t1)   reff(M1)   P_el(M1)   P_rad(M1)  P_rot(M1)  v(nsens)   state0(M1)
 0.         0.         0.         0.         0.         0.         0.         ??         0.         0.         0.        
#Time       v(M1.l1)   v(ndd)     I(M1)      I(R1)      omega(M1)  v(nsens)  
 0.         0.         0.         0.         0.         0.         0.        
 0.05       905.91u    0.5        0.         0.045372   0.0011131  2.2262u   
 0.1        906.u      1.         0.         0.090827   0.004387   8.7741u   
 0.15       10.973u    1.         0.         0.090909   0.0086049  17.21u    
 0.2       -10.879u    1.         0.         0.090911   0.012619   25.239u   
 0.25       10.814u    1.         0.         0.09091    0.016438   32.875u   
 0.3       -10.722u    1.         0.         0.090912   0.02007    40.139u   
 0.35       10.657u    1.         0.         0.09091    0.023524   47.048u   
 0.4       -10.568u    1.         0.         0.090912   0.02681    53.62u    
 0.45       10.503u    1.         0.         0.090911   0.029936   59.871u   
 0.5       -10.416u    1.         0.         0.090913   0.032909   65.817u   
 0.55       10.351u    1.         0.         0.090911   0.035736   71.473u   
 0.6       -10.266u    1.         0.         0.090913   0.038426   76.852u   
 0.65       10.201u    1.         0.         0.090912   0.040984   81.969u   
 0.7       -10.118u    1.         0.         0.090914   0.043418   86.836u   
 0.75       10.053u    1.         0.         0.090912   0.045733   91.465u   
 0.8       -9.9723u    1.         0.         0.090914   0.047934   95.868u   
 0.85       9.9076u    1.         0.         0.090913   0.050028   100.06u   
 0.9       -9.8286u    1.         0.         0.090915   0.05202    104.04u   
 0.95       9.7643u    1.         0.         0.090913   0.053915   107.83u   
 1.        -9.687u     1.         0.         0.090915   0.055717   111.43u   
t1= 0.03290858
#Time       v(M1.l1)   v(ndd)     I(M1)      I(R1)      omega(M1)  v(nsens)  
 1.        -9.687u     1.         0.         0.090915   0.055717   111.43u   
 1.05      -158.73u    0.9        0.         0.081838   0.057208   114.42u   
 1.1       -204.74u    0.8        0.         0.072751   0.058185   116.37u   
 1.15      -159.06u    0.7        0.         0.063656   0.058671   117.34u   
 1.2       -204.41u    0.6        0.         0.054569   0.05869    117.38u   
 1.25      -159.39u    0.5        0.         0.045474   0.058264   116.53u   
 1.3       -204.08u    0.4        0.         0.036387   0.057416   114.83u   
 1.35      -159.72u    0.3        0.         0.027292   0.056165   112.33u   
 1.4       -203.76u    0.2        0.         0.018205   0.054533   109.07u   
 1.45      -160.04u    0.1        0.         0.0091102  0.052536   105.07u   
 1.5       -203.45u   -230.58p    0.         23.058u    0.050194   100.39u   
 1.55      -160.36u   -0.1        0.        -0.009072   0.047522   95.044u   
 1.6       -203.14u   -0.2        0.        -0.018159   0.044538   89.075u   
 1.65      -160.67u   -0.3        0.        -0.027254   0.041255   82.511u   
 1.7       -202.83u   -0.4        0.        -0.036342   0.03769    75.38u    
 1.75      -160.97u   -0.5        0.        -0.045437   0.033855   67.71u    
 1.8       -202.53u   -0.6        0.        -0.054524   0.029764   59.528u   
 1.85      -161.27u   -0.7        0.        -0.063619   0.025429   50.858u   
 1.9       -202.23u   -0.8        0.        -0.072707   0.020862   41.725u   
 1.95      -161.57u   -0.9        0.        -0.081802   0.016075   32.151u   
 2.        -201.94u   -1.         0.        -0.09089    0.011079   22.157u   
t2= 0.05019371
s2= 100.3874u
#Time       v(M1.l1)   v(ndd)     I(M1)      I(R1)      omega(M1)  v(nsens)  
 2.        -201.94u   -1.         0.        -0.09089    0.011079   22.157u   
 2.05       132.97u   -0.95       0.        -0.086375   0.0062153  12.431u   
 2.1        49.14u    -0.9        0.        -0.081822   0.0018095  3.6191u   
 2.15       132.36u   -0.85       0.        -0.077285  -0.0021594 -4.3188u   
 2.2        49.745u   -0.8        0.        -0.072732  -0.0057128 -11.426u   
 2.25       131.76u   -0.75       0.        -0.068195  -0.008871  -17.742u   
 2.3        50.341u   -0.7        0.        -0.063642  -0.011653  -23.307u   
 2.35       131.17u   -0.65       0.        -0.059104  -0.014078  -28.156u   
 2.4        50.928u   -0.6        0.        -0.054552  -0.016163  -32.325u   
 2.45       130.59u   -0.55       0.        -0.050013  -0.017924  -35.848u   
 2.5        51.506u   -0.5        0.        -0.045461  -0.019377  -38.754u   
 2.55       130.02u   -0.45       0.        -0.040923  -0.020538  -41.076u   
 2.6        52.076u   -0.4        0.        -0.03637   -0.02142   -42.84u    
 2.65       129.46u   -0.35       0.        -0.031832  -0.022038  -44.075u   
 2.7        52.638u   -0.3        0.        -0.02728   -0.022403  -44.807u   
 2.75       128.9u    -0.25       0.        -0.022741  -0.022529  -45.059u   
 2.8        53.191u   -0.2        0.        -0.018189  -0.022428  -44.855u   
 2.85       128.35u   -0.15       0.        -0.01365   -0.022109  -44.218u   
 2.9        53.736u   -0.1        0.        -0.0090977 -0.021584  -43.169u   
 2.95       127.81u   -0.05       0.        -0.004559  -0.020863  -41.727u   
 3.         54.274u    67.48p     0.        -6.7482u   -0.019956  -39.912u   
 3.05       1.7241n    17.258p    0.        -1.7258u   -0.018982  -37.964u   
 3.1        1.6463n    16.415p    0.        -1.6415u   -0.018055  -36.11u    
 3.15       1.5595n    15.614p    0.        -1.5614u   -0.017174  -34.347u   
 3.2        1.4897n    14.852p    0.        -1.4852u   -0.016335  -32.67u    
 3.25       1.4107n    14.126p    0.        -1.4126u   -0.015538  -31.075u   
 3.3        1.3481n    13.437p    0.        -1.3437u   -0.014779  -29.558u   
 3.35       1.2761n    12.781p    0.        -1.2781u   -0.014057  -28.115u   
 3.4        1.2199n    12.157p    0.        -1.2157u   -0.013371  -26.742u   
 3.45       1.1542n    11.563p    0.        -1.1563u   -0.012718  -25.437u   
 3.5        1.104n     10.999p    0.        -1.0999u   -0.012097  -24.195u   
 3.55       1.044n     10.462p    0.        -1.0462u   -0.011507  -23.013u   
 3.6        999.04p    9.951p     0.        -995.08n   -0.010945  -21.89u    
 3.65       944.33p    9.465p     0.        -946.5n    -0.010411  -20.821u   
 3.7        904.11p    9.003p     0.        -900.29n   -0.0099023 -19.805u   
 3.75       854.13p    8.563p     0.        -856.33n   -0.0094188 -18.838u   
 3.8        818.22p    8.145p     0.        -814.52n   -0.0089589 -17.918u   
 3.85       772.52p    7.748p     0.        -774.75n   -0.0085215 -17.043u   
 3.9        740.52p    7.369p     0.        -736.93n   -0.0081055 -16.211u   
 3.95       698.69p    7.009p     0.        -700.95n   -0.0077097 -15.419u   
 4.         670.21p    6.667p     0.        -666.73n   -0.0073333 -14.667u   
 4.05       631.89p    6.342p     0.        -634.17n   -0.0069753 -13.951u   
 4.1        606.59p    6.032p     0.        -603.21n   -0.0066347 -13.269u   
 4.15       571.47p    5.738p     0.        -573.76n   -0.0063108 -12.622u   
 4.2        549.04p    5.457p     0.        -545.75n   -0.0060027 -12.005u   
 4.25       516.8p     5.191p     0.        -519.1n    -0.0057096 -11.419u   
 4.3        496.96p    4.938p     0.        -493.76n   -0.0054308 -10.862u   
 4.35       467.34p    4.696p     0.        -469.65n   -0.0051657 -10.331u   
 4.4        449.84p    4.467p     0.        -446.72n   -0.0049135 -9.8269u   
 4.45       422.6p     4.249p     0.        -424.91n   -0.0046736 -9.3471u   
 4.5        407.21p    4.042p     0.        -404.16n   -0.0044454 -8.8908u   
 4.55       382.12p    3.844p     0.        -384.43n   -0.0042284 -8.4567u   
 4.6        368.63p    3.657p     0.        -365.66n   -0.0040219 -8.0438u   
 4.65       345.51p    3.478p     0.        -347.81n   -0.0038255 -7.6511u   
 4.7        333.73p    3.308p     0.        -330.83n   -0.0036388 -7.2775u   
 4.75       312.38p    3.147p     0.        -314.67n   -0.0034611 -6.9222u   
 4.8        302.14p    2.993p     0.        -299.31n   -0.0032921 -6.5842u   
 4.85       282.41p    2.847p     0.        -284.7n    -0.0031314 -6.2628u   
 4.9        273.57p    2.708p     0.        -270.8n    -0.0029785 -5.957u    
 4.95       255.3p     2.576p     0.        -257.58n   -0.0028331 -5.6662u   
 5.         247.71p    2.45p      0.        -245.n     -0.0026948 -5.3895u   
t3=-0.01209735
Gnucap   System status
iterations: op=0, dc=4, tran=348, fourier=0, total=747
transient timesteps: accepted=146, rejected=4, total=150
nodes: user=3, subckt=0, model=3, total=6
dctran density=66.7%, ac density=66.7%
