#Time       v(ndd)     v(M1.l1)   omega(M1) 
 0.         0.         0.         0.        
 0.05       0.5        909.09E-6  0.0011495 
 0.1        1.         909.1E-6   0.0045322 
 0.15       1.         7.4728E-9  0.0087123 
 0.2        1.         7.112E-9   0.012673  
 0.25       1.         6.769E-9   0.016442  
 0.3        1.         6.4464E-9  0.019987  
 0.35       1.         6.1392E-9  0.023363  
 0.4        1.         5.8466E-9  0.026578  
 0.45       1.         5.5679E-9  0.029641  
 0.5        1.         5.3025E-9  0.032557  
 0.55       1.         5.0498E-9  0.035334  
 0.6        1.         4.8091E-9  0.037979  
 0.65       1.         4.5799E-9  0.040497  
 0.7        1.         4.3617E-9  0.042896  
 0.75       1.         4.1538E-9  0.04518   
 0.8        1.         3.9558E-9  0.047356  
 0.85       1.         3.7673E-9  0.049428  
 0.9        1.         3.5877E-9  0.051401  
 0.95       1.         3.4167E-9  0.05328   
 1.         1.         3.2539E-9  0.055069  
 1.05       0.9       -181.82E-6  0.056442  
 1.1        0.8       -181.82E-6  0.057304  
 1.15       0.7       -181.82E-6  0.057604  
 1.2        0.6       -181.82E-6  0.057563  
 1.25       0.5       -181.82E-6  0.057118  
 1.3        0.4       -181.82E-6  0.056224  
 1.35       0.3       -181.82E-6  0.054936  
 1.4        0.2       -181.82E-6  0.053184  
 1.45       0.1       -181.82E-6  0.051083  
 1.5       -209.5E-12 -181.82E-6  0.048649  
 1.55      -0.1       -181.82E-6  0.045899  
 1.6       -0.2       -181.82E-6  0.042846  
 1.65      -0.3       -181.82E-6  0.039506  
 1.7       -0.4       -181.82E-6  0.035892  
 1.75      -0.5       -181.83E-6  0.032018  
 1.8       -0.6       -181.83E-6  0.027896  
 1.85      -0.7       -181.83E-6  0.023537  
 1.9       -0.8       -181.83E-6  0.018953  
 1.95      -0.9       -181.83E-6  0.014154  
 2.        -1.        -181.83E-6  0.0091517 
 2.05      -0.95       90.901E-6  0.0044668 
 2.1       -0.9        90.902E-6  219.53E-6 
 2.15      -0.85       90.902E-6 -0.0036355 
 2.2       -0.8        90.903E-6 -0.0070507 
 2.25      -0.75       90.904E-6 -0.01005   
 2.3       -0.7        90.904E-6 -0.012686  
 2.35      -0.65       90.905E-6 -0.014976  
 2.4       -0.6        90.906E-6 -0.016937  
 2.45      -0.55       90.906E-6 -0.018584  
 2.5       -0.5        90.907E-6 -0.019932  
 2.55      -0.45       90.907E-6 -0.020996  
 2.6       -0.4        90.908E-6 -0.021728  
 2.65      -0.35       90.908E-6 -0.022207  
 2.7       -0.3        90.909E-6 -0.022448  
 2.75      -0.25       90.909E-6 -0.022515  
 2.8       -0.2        90.909E-6 -0.022377  
 2.85      -0.15       90.91E-6  -0.02201   
 2.9       -0.1        90.91E-6  -0.021441  
 2.95      -0.05       90.91E-6  -0.02068   
 3.         100.5E-12  90.911E-6 -0.019695  
 3.05       17.04E-12  1.706E-9  -0.018743  
 3.1        16.23E-12  1.6243E-9 -0.01785   
 3.15       15.45E-12  1.5469E-9 -0.016999  
 3.2        14.72E-12  1.4732E-9 -0.016189  
 3.25       14.02E-12  1.403E-9  -0.015417  
 3.3        13.35E-12  1.3361E-9 -0.014682  
 3.35       12.71E-12  1.2724E-9 -0.013983  
 3.4        12.11E-12  1.2118E-9 -0.013316  
 3.45       11.53E-12  1.154E-9  -0.012681  
 3.5        10.98E-12  1.099E-9  -0.012077  
 3.55       10.46E-12  1.0466E-9 -0.011501  
 3.6        9.958E-12  996.8E-12 -0.010953  
 3.65       9.484E-12  949.2E-12 -0.010431  
 3.7        9.032E-12  904.E-12  -0.0099341 
 3.75       8.601E-12  860.9E-12 -0.0094607 
 3.8        8.191E-12  819.9E-12 -0.0090098 
 3.85       7.801E-12  780.8E-12 -0.0085804 
 3.9        7.429E-12  743.6E-12 -0.0081714 
 3.95       7.075E-12  708.2E-12 -0.007782  
 4.         6.738E-12  674.4E-12 -0.0074111 
 4.05       6.417E-12  642.3E-12 -0.0070579 
 4.1        6.111E-12  611.7E-12 -0.0067215 
 4.15       5.82E-12   582.5E-12 -0.0064011 
 4.2        5.542E-12  554.7E-12 -0.0060961 
 4.25       5.278E-12  528.3E-12 -0.0058055 
 4.3        5.027E-12  503.1E-12 -0.0055288 
 4.35       4.787E-12  479.1E-12 -0.0052653 
 4.4        4.559E-12  456.3E-12 -0.0050144 
 4.45       4.342E-12  434.6E-12 -0.0047754 
 4.5        4.135E-12  413.8E-12 -0.0045478 
 4.55       3.938E-12  394.1E-12 -0.004331  
 4.6        3.75E-12   375.3E-12 -0.0041246 
 4.65       3.571E-12  357.5E-12 -0.003928  
 4.7        3.401E-12  340.4E-12 -0.0037408 
 4.75       3.239E-12  324.2E-12 -0.0035625 
 4.8        3.085E-12  308.7E-12 -0.0033927 
 4.85       2.938E-12  294.E-12  -0.003231  
 4.9        2.798E-12  280.E-12  -0.0030771 
 4.95       2.664E-12  266.7E-12 -0.0029304 
 5.         2.537E-12  254.E-12  -0.0027907 
