#           v(ndd)     omega(M1)  v(M1.p2)   v(M1.t1)   reff(M1)   P_el(M1)   P_rad(M1)  P_rot(M1)  v(nsens)   state0(M1)
 0.         0.         0.         0.         0.         0.         0.         ??         0.         0.         0.        
#Time       v(M1.l1)   v(ndd)     I(M1)      I(R1)      omega(M1)  v(nsens)  
 0.         0.         0.         0.         0.         0.         0.        
 0.05       911.04u    0.5        0.         0.045419   0.52311    0.0010462 
 0.1        913.01u    1.         0.         0.091019   2.1216     0.0042432 
 0.15       13.846u    1.         0.         0.091302   4.3351     0.0086701 
 0.2        13.541u    1.         0.         0.091504   6.5542     0.013108  
 0.25       13.231u    1.         0.         0.091704   8.754      0.017508  
 0.3       -5.2468u    1.         0.         0.091903   10.925     0.02185   
 0.35       12.97u     1.         0.         0.092095   13.059     0.026118  
 0.4       -5.2491u    1.         0.         0.092287   15.156     0.030313  
 0.45       12.704u    1.         0.         0.092473   17.217     0.034434  
 0.5       -5.2521u    1.         0.         0.092659   19.241     0.038482  
 0.55       12.441u    1.         0.         0.092838   21.228     0.042457  
 0.6       -5.2556u    1.         0.         0.093017   23.18      0.046359  
 0.65       12.182u    1.         0.         0.093189   25.095     0.05019   
 0.7       -5.2593u    1.         0.         0.093362   26.975     0.05395   
 0.75       11.927u    1.         0.         0.093528   28.819     0.057638  
 0.8       -5.2629u    1.         0.         0.093694   30.628     0.061256  
 0.85       11.675u    1.         0.         0.093854   32.402     0.064804  
 0.9       -5.2663u    1.         0.         0.094013   34.142     0.068283  
 0.95       11.427u    1.         0.         0.094167   35.847     0.071693  
 1.        -5.2693u    1.         0.         0.09432    37.518     0.075035  
t1= 19.24077
#Time       v(M1.l1)   v(ndd)     I(M1)      I(R1)      omega(M1)  v(nsens)  
 1.        -5.2592u    1.         0.         0.09432    37.521     0.075041  
 1.05      -196.51u    0.9        0.         0.085388   39.076     0.078151  
 1.1       -162.64u    0.8        0.         0.076409   40.342     0.080685  
 1.15      -197.38u    0.7        0.         0.067409   41.299     0.082598  
 1.2       -164.u      0.6        0.         0.058374   41.951     0.083902  
 1.25      -198.23u    0.5        0.         0.049318   42.303     0.084605  
 1.3       -165.32u    0.4        0.         0.040229   42.359     0.084719  
 1.35      -199.04u    0.3        0.         0.03112    42.126     0.084252  
 1.4       -166.6u     0.2        0.         0.021979   41.608     0.083215  
 1.45      -199.83u    0.1        0.         0.012819   40.809     0.081618  
 1.5       -167.84u   -36.276n    0.         0.0036276  39.736     0.079472  
 1.55      -200.58u   -0.1        0.        -0.0055824  38.393     0.076785  
 1.6       -169.04u   -0.2        0.        -0.014822   36.784     0.073569  
 1.65      -201.29u   -0.3        0.        -0.02408    34.916     0.069832  
 1.7       -170.2u    -0.4        0.        -0.033367   32.793     0.065586  
 1.75      -201.97u   -0.5        0.        -0.042671   30.42      0.06084   
 1.8       -171.32u   -0.6        0.        -0.052002   27.802     0.055605  
 1.85      -202.62u   -0.7        0.        -0.06135    24.944     0.049889  
 1.9       -172.4u    -0.8        0.        -0.070725   21.851     0.043702  
 1.95      -203.24u   -0.9        0.        -0.080115   18.528     0.037056  
 2.        -173.44u   -1.         0.        -0.089531   14.979     0.029959  
t2= 39.73588
s2= 0.07947177
#Time       v(M1.l1)   v(ndd)     I(M1)      I(R1)      omega(M1)  v(nsens)  
 2.        -173.46u   -1.         0.        -0.089532   14.974     0.029948  
 2.05       56.771u   -0.95       0.        -0.085337   11.348     0.022696  
 2.1        112.46u   -0.9        0.        -0.081106   7.9493     0.015899  
 2.15       58.104u   -0.85       0.        -0.076841   4.8098     0.0096196 
 2.2        112.99u   -0.8        0.        -0.072563   1.9238     0.0038476 
 2.25       100.31u   -0.75       0.        -0.068283  -1.018     -0.0020359 
 2.3        71.997u   -0.7        0.        -0.063997  -3.8986    -0.0077972 
 2.35       100.31u   -0.65       0.        -0.059689  -6.4819    -0.012964  
 2.4        73.284u   -0.6        0.        -0.055349  -8.7654    -0.017531  
 2.45       101.17u   -0.55       0.        -0.050987  -10.759    -0.021518  
 2.5        74.504u   -0.5        0.        -0.046595  -12.472    -0.024945  
 2.55       101.96u   -0.45       0.        -0.042183  -13.914    -0.027829  
 2.6        75.655u   -0.4        0.        -0.037743  -15.095    -0.030189  
 2.65       102.69u   -0.35       0.        -0.033284  -16.021    -0.032043  
 2.7        76.739u   -0.3        0.        -0.028798  -16.704    -0.033407  
 2.75       103.36u   -0.25       0.        -0.024296  -17.149    -0.034299  
 2.8        77.761u   -0.2        0.        -0.019768  -17.367    -0.034734  
 2.85       103.97u   -0.15       0.        -0.015224  -17.364    -0.034729  
 2.9        78.723u   -0.1        0.        -0.010657  -17.149    -0.034298  
 2.95       104.53u   -0.05       0.        -0.0060757 -16.728    -0.033457  
 3.         79.629u    14.718n    0.        -0.0014718 -16.11     -0.03222   
 3.05       624.38n    14.001n    0.        -0.0014001 -15.401    -0.030802  
 3.1        597.01n    13.378n    0.        -0.0013378 -14.715    -0.02943   
 3.15       1.7989u    12.78n     0.        -0.001278  -14.056    -0.028112  
 3.2        508.55n    12.204n    0.        -0.0012204 -13.424    -0.026848  
 3.25       1.6948u    11.654n    0.        -0.0011654 -12.818    -0.025636  
 3.3        425.92n    11.125n    0.        -0.0011125 -12.237    -0.024475  
 3.35       1.5978u    10.62n     0.        -0.001062  -11.681    -0.023361  
 3.4        349.85n    10.134n    0.        -0.0010134 -11.147    -0.022295  
 3.45       1.5074u    9.6709n    0.        -967.09u   -10.636    -0.021273  
 3.5        279.93n    9.2249n    0.        -922.49u   -10.147    -0.020294  
 3.55       1.4231u    8.8n       0.        -880.u     -9.6786    -0.019357  
 3.6        215.74n    8.391n     0.        -839.1u    -9.2299    -0.01846   
 3.65       1.3447u    8.0017n    0.        -800.17u   -8.8005    -0.017601  
 3.7        156.93n    7.627n     0.        -762.7u    -8.3895    -0.016779  
 3.75       1.2717u    7.2705n    0.        -727.05u   -7.9963    -0.015993  
 3.8        103.12n    6.9275n    0.        -692.75u   -7.6201    -0.01524   
 3.85       1.2037u    6.6013n    0.        -660.13u   -7.2603    -0.014521  
 3.9        53.98n     6.2875n    0.        -628.75u   -6.9162    -0.013832  
 3.95       1.1406u    5.9894n    0.        -598.94u   -6.5872    -0.013174  
 4.         9.1874n    5.7025n    0.        -570.25u   -6.2728    -0.012546  
 4.05       1.0818u    5.4303n    0.        -543.03u   -5.9722    -0.011944  
 4.1       -31.562n    5.1682n    0.        -516.82u   -5.685     -0.01137   
 4.15       1.0272u    4.9197n    0.        -491.97u   -5.4107    -0.010821  
 4.2       -68.554n    4.6805n    0.        -468.05u   -5.1486    -0.010297  
 4.25       976.4n     4.454n     0.        -445.4u    -4.8984    -0.0097968 
 4.3       -102.06n    4.2358n    0.        -423.58u   -4.6595    -0.0093189 
 4.35       929.21n    4.0294n    0.        -402.94u   -4.4314    -0.0088627 
 4.4       -132.34n    3.8305n    0.        -383.05u   -4.2137    -0.0084274 
 4.45       885.34n    3.6426n    0.        -364.26u   -4.006     -0.0080119 
 4.5       -159.62n    3.4615n    0.        -346.15u   -3.8078    -0.0076156 
 4.55       844.57n    3.2905n    0.        -329.05u   -3.6188    -0.0072375 
 4.6       -184.14n    3.1257n    0.        -312.57u   -3.4385    -0.006877  
 4.65       806.67n    2.9704n    0.        -297.04u   -3.2666    -0.0065332 
 4.7       -206.1n     2.8205n    0.        -282.05u   -3.1027    -0.0062055 
 4.75       771.44n    2.6794n    0.        -267.94u   -2.9466    -0.0058931 
 4.8       -225.7n     2.5432n    0.        -254.32u   -2.7978    -0.0055955 
 4.85       738.69n    2.4152n    0.        -241.52u   -2.656     -0.0053119 
 4.9       -243.13n    2.2915n    0.        -229.15u   -2.5209    -0.0050418 
 4.95       708.22n    2.1754n    0.        -217.54u   -2.3923    -0.0047845 
 5.        -258.56n    2.0632n    0.        -206.32u   -2.2698    -0.0045396 
t3=-10.14714
Gnucap   System status
iterations: op=0, dc=4, tran=448, fourier=0, total=1328
transient timesteps: accepted=178, rejected=20, total=198
nodes: user=3, subckt=0, model=3, total=6
dctran density=66.7%, ac density=66.7%
