.print dc v(ndd) omega(M1) v(M1.nodes) reff(M1) P_el(M1) P_rad(M1) P_r
                             ^ ? no match
#Time       v(ndd)     v(M1.l1)   omega(M1) 
 0.         0.         0.         0.        
 0.05       0.5        909.09E-6  0.0011495 
 0.1        1.         909.1E-6   0.0045322 
 0.15       1.         7.6925E-9  0.0087044 
 0.2        1.         7.1127E-9  0.012665  
 0.25       1.         6.7697E-9  0.016435  
 0.3        1.         6.447E-9   0.01998   
 0.35       1.         6.1398E-9  0.023357  
 0.4        1.         5.8471E-9  0.026572  
 0.45       1.         5.5685E-9  0.029635  
 0.5        1.         5.3031E-9  0.032551  
 0.55       1.         5.0503E-9  0.035328  
 0.6        1.         4.8096E-9  0.037973  
 0.65       1.         4.5804E-9  0.040492  
 0.7        1.         4.3621E-9  0.042891  
 0.75       1.         4.1542E-9  0.045176  
 0.8        1.         3.9562E-9  0.047352  
 0.85       1.         3.7676E-9  0.049424  
 0.9        1.         3.5881E-9  0.051397  
 0.95       1.         3.4171E-9  0.053276  
 1.         1.         3.2542E-9  0.055066  
 1.05       0.9       -181.49E-6  0.056338  
 1.1        0.8       -181.82E-6  0.057117  
 1.15       0.7       -181.82E-6  0.057426  
 1.2        0.6       -181.82E-6  0.057287  
 1.25       0.5       -181.82E-6  0.056722  
 1.3        0.4       -181.82E-6  0.055751  
 1.35       0.3       -181.82E-6  0.054393  
 1.4        0.2       -181.82E-6  0.052667  
 1.45       0.1       -181.82E-6  0.050591  
 1.5       -209.1E-12 -181.82E-6  0.04818   
 1.55      -0.1       -181.82E-6  0.045452  
 1.6       -0.2       -181.82E-6  0.042421  
 1.65      -0.3       -181.82E-6  0.039101  
 1.7       -0.4       -181.82E-6  0.035507  
 1.75      -0.5       -181.83E-6  0.031651  
 1.8       -0.6       -181.83E-6  0.027546  
 1.85      -0.7       -181.83E-6  0.023204  
 1.9       -0.8       -181.83E-6  0.018635  
 1.95      -0.9       -181.83E-6  0.013852  
 2.        -1.        -181.83E-6  0.0088639 
 2.05      -0.95       90.897E-6  0.0042206 
 2.1       -0.9        90.902E-6 -6.0537E-6 
 2.15      -0.85       90.902E-6 -0.0038421 
 2.2       -0.8        90.903E-6 -0.0072453 
 2.25      -0.75       90.904E-6 -0.010264  
 2.3       -0.7        90.904E-6 -0.01289   
 2.35      -0.65       90.905E-6 -0.01517   
 2.4       -0.6        90.906E-6 -0.017121  
 2.45      -0.55       90.906E-6 -0.018759  
 2.5       -0.5        90.907E-6 -0.020099  
 2.55      -0.45       90.907E-6 -0.021155  
 2.6       -0.4        90.908E-6 -0.021879  
 2.65      -0.35       90.908E-6 -0.022351  
 2.7       -0.3        90.909E-6 -0.022585  
 2.75      -0.25       90.909E-6 -0.022591  
 2.8       -0.2        90.909E-6 -0.022381  
 2.85      -0.15       90.91E-6  -0.021964  
 2.9       -0.1        90.91E-6  -0.02135   
 2.95      -0.05       90.91E-6  -0.02055   
 3.         100.4E-12  90.911E-6 -0.019571  
 3.05       17.1E-12   166.69E-9 -0.018638  
 3.1        16.14E-12  1.9146E-9 -0.01775   
 3.15       15.37E-12  1.5388E-9 -0.016904  
 3.2        14.64E-12  1.4649E-9 -0.016098  
 3.25       13.94E-12  1.3951E-9 -0.015331  
 3.3        13.27E-12  1.3286E-9 -0.0146    
 3.35       12.64E-12  1.2653E-9 -0.013904  
 3.4        12.04E-12  1.205E-9  -0.013242  
 3.45       11.47E-12  1.1476E-9 -0.01261   
 3.5        10.92E-12  1.0929E-9 -0.012009  
 3.55       10.4E-12   1.0408E-9 -0.011437  
 3.6        9.903E-12  991.2E-12 -0.010892  
 3.65       9.431E-12  943.9E-12 -0.010373  
 3.7        8.981E-12  898.9E-12 -0.0098785 
 3.75       8.553E-12  856.1E-12 -0.0094077 
 3.8        8.146E-12  815.3E-12 -0.0089593 
 3.85       7.757E-12  776.4E-12 -0.0085323 
 3.9        7.388E-12  739.4E-12 -0.0081257 
 3.95       7.036E-12  704.2E-12 -0.0077384 
 4.         6.7E-12    670.6E-12 -0.0073696 
 4.05       6.381E-12  638.7E-12 -0.0070183 
 4.1        6.077E-12  608.2E-12 -0.0066838 
 4.15       5.787E-12  579.2E-12 -0.0063653 
 4.2        5.511E-12  551.6E-12 -0.0060619 
 4.25       5.249E-12  525.3E-12 -0.005773  
 4.3        4.999E-12  500.3E-12 -0.0054979 
 4.35       4.76E-12   476.5E-12 -0.0052358 
 4.4        4.533E-12  453.8E-12 -0.0049863 
 4.45       4.317E-12  432.1E-12 -0.0047486 
 4.5        4.112E-12  411.5E-12 -0.0045223 
 4.55       3.916E-12  391.9E-12 -0.0043068 
 4.6        3.729E-12  373.2E-12 -0.0041015 
 4.65       3.551E-12  355.4E-12 -0.003906  
 4.7        3.382E-12  338.5E-12 -0.0037199 
 4.75       3.221E-12  322.4E-12 -0.0035426 
 4.8        3.067E-12  307.E-12  -0.0033738 
 4.85       2.921E-12  292.4E-12 -0.003213  
 4.9        2.782E-12  278.4E-12 -0.0030598 
 4.95       2.649E-12  265.2E-12 -0.002914  
 5.         2.523E-12  252.5E-12 -0.0027751 
Gnucap   System status
iterations: op=0, dc=4, tran=755, fourier=0, total=948
transient timesteps: accepted=188, rejected=1, total=189
nodes: user=3, subckt=0, model=3, total=6
dctran density=66.7%, ac density=66.7%
