#           v(ndd)     omega(M1)  v(M1.p2)   v(M1.t1)   reff(M1)   P_el(M1)   P_rad(M1)  P_rot(M1)  v(nsens)   state0(M1)
 0.         0.         0.         0.         0.         0.         0.         ??         0.         0.         0.        
#Time       v(M1.l1)   v(ndd)     I(M1)      I(R1)      omega(M1)  v(nsens)   P_fric(M1) state0(M1) v(nsens)   hidden(0)  method(M1.l1)
 0.         0.         0.         0.         0.         0.         0.         0.         0.         0.         1.        -1.        
 0.05       0.0010011  0.5        0.         0.0499     3.7126     0.0074251  0.037126   371.26u    0.0074251  16.        2.        
 0.1        998.93u    1.         0.         0.0999     8.2553     0.016511   0.082553   825.53u    0.016511   3.         2.        
 0.15       6.3699u    1.         0.         0.099999   9.0876     0.018175   0.090876   908.76u    0.018175   20.        2.        
 0.2       -13.478n    1.         0.         0.1        9.0908     0.018182   0.090908   909.08u    0.018182   26.        2.        
 0.25       33.924p    1.         0.         0.1        9.0908     0.018182   0.090908   909.08u    0.018182   27.        2.        
 0.3       -605.14f    1.         0.         0.1        9.0908     0.018182   0.090908   909.08u    0.018182   22.        2.        
 0.35       222.53f    1.         0.         0.1        9.0908     0.018182   0.090908   909.08u    0.018182   11.        2.        
 0.4        165.83f    1.         0.         0.1        9.0908     0.018182   0.090908   909.08u    0.018182   6.         2.        
 0.45      -154.31f    1.         0.         0.1        9.0908     0.018182   0.090908   909.08u    0.018182   3.         2.        
 0.5       -149.45f    1.         0.         0.1        9.0908     0.018182   0.090908   909.08u    0.018182   2.         2.        
 0.55      -144.74f    1.         0.         0.1        9.0908     0.018182   0.090908   909.08u    0.018182   2.         2.        
 0.6       -140.18f    1.         0.         0.1        9.0908     0.018182   0.090908   909.08u    0.018182   2.         2.        
 0.65      -135.76f    1.         0.         0.1        9.0908     0.018182   0.090908   909.08u    0.018182   2.         2.        
 0.7        134.68f    1.         0.         0.1        9.0908     0.018182   0.090908   909.08u    0.018182   1.         2.        
 0.75      -133.61f    1.         0.         0.1        9.0908     0.018182   0.090908   909.08u    0.018182   1.         2.        
 0.8        132.55f    1.         0.         0.1        9.0908     0.018182   0.090908   909.08u    0.018182   1.         2.        
 0.85      -131.49f    1.         0.         0.1        9.0908     0.018182   0.090908   909.08u    0.018182   1.         2.        
 0.9        130.44f    1.         0.         0.1        9.0908     0.018182   0.090908   909.08u    0.018182   1.         2.        
 0.95      -129.4f     1.         0.         0.1        9.0908     0.018182   0.090908   909.08u    0.018182   1.         2.        
 1.         128.37f    1.         0.         0.1        9.0908     0.018182   0.090908   909.08u    0.018182   1.         2.        
t1= 9.090809
#Time       v(M1.l1)   v(ndd)     I(M1)      I(R1)      omega(M1)  v(nsens)   P_fric(M1) state0(M1) v(nsens)   hidden(0)  method(M1.l1)
 1.         128.37f    1.         0.         0.1        9.0908     0.018182   0.090908   909.08u    0.018182   1.         2.        
 1.05      -199.31u    0.9        0.         0.09002    8.3483     0.016697   0.083483   834.83u    0.016697   16.        2.        
 1.1       -200.64u    0.8        0.         0.08002    7.4398     0.014879   0.074398   743.98u    0.014879   3.         2.        
 1.15      -199.37u    0.7        0.         0.07002    6.5307     0.013061   0.065307   653.07u    0.013061   1.         2.        
 1.2       -200.63u    0.6        0.         0.06002    5.6216     0.011243   0.056216   562.16u    0.011243   1.         2.        
 1.25      -199.38u    0.5        0.         0.05002    4.7125     0.0094246  0.047125   471.25u    0.0094246  1.         2.        
 1.3       -200.62u    0.4        0.         0.04002    3.8035     0.0076064  0.038035   380.35u    0.0076064  1.         2.        
 1.35      -199.39u    0.3        0.         0.03002    2.8944     0.0057887  0.028944   289.44u    0.0057887  1.         2.        
 1.4       -200.61u    0.2        0.         0.02002    1.9853     0.0039706  0.019853   198.53u    0.0039706  1.         2.        
 1.45      -199.4u     0.1        0.         0.01002    1.0762     0.0021524  0.010762   107.62u    0.0021524  1.         2.        
 1.5       -200.6u    -200.6p     0.         20.06u     0.1671     334.21u    0.001671   16.71u     334.21u    1.         2.        
 1.55      -199.41u   -0.1        0.        -0.00998   -0.74198   -0.0014839 -0.0074198 -74.198u   -0.0014839  1.         2.        
 1.6       -200.59u   -0.2        0.        -0.01998   -1.6511    -0.0033021 -0.016511  -165.11u   -0.0033021  1.         2.        
 1.65      -199.42u   -0.3        0.        -0.02998   -2.5601    -0.0051202 -0.025601  -256.01u   -0.0051202  1.         2.        
 1.7       -200.58u   -0.4        0.        -0.03998   -3.4692    -0.0069384 -0.034692  -346.92u   -0.0069384  1.         2.        
 1.75      -199.43u   -0.5        0.        -0.04998   -4.3783    -0.0087571 -0.043783  -437.83u   -0.0087571  1.         2.        
 1.8       -200.57u   -0.6        0.        -0.05998   -5.2874    -0.010575  -0.052874  -528.74u   -0.010575   1.         2.        
 1.85      -199.43u   -0.7        0.        -0.06998   -6.1964    -0.012393  -0.061964  -619.64u   -0.012393   1.         2.        
 1.9       -200.56u   -0.8        0.        -0.07998   -7.1055    -0.014212  -0.071055  -710.55u   -0.014212   1.         2.        
 1.95      -199.44u   -0.9        0.        -0.08998   -8.0146    -0.01603   -0.080146  -801.46u   -0.01603    1.         2.        
 2.        -200.55u   -1.         0.        -0.09998   -8.9237    -0.017848  -0.089237  -892.37u   -0.017848   1.         2.        
t2= 0.1671047
s2= 334.2068u
