.print dc v(ndd) omega(M1) v(M1.nodes) reff(M1) P_el(M1) P_rad(M1) P_r
                             ^ ? no match
#           v(ndd)     omega(M1)  reff(M1)   P_el(M1)   P_rad(M1)  P_rot(M1)  v(nsens)   state0(M1)
 0.         0.         0.         0.         0.         ??         0.         0.         0.        
#Time       v(M1.l1)   v(ndd)     I(M1)      I(R1)      omega(M1)  v(nsens)  
 0.         0.         0.         0.         0.         0.         0.        
 0.05       909.14u    0.5        0.         0.045372   0.0011122  2.2245u   
 0.1        909.14u    1.         0.         0.090827   0.0043862  8.7724u   
 0.15      -851.52u    1.         0.         0.090987   0.0086058  17.212u   
 0.2       -827.11u    1.         0.         0.090985   0.012619   25.239u   
 0.25       821.13u    1.         0.         0.090836   0.016438   32.876u   
 0.3       -815.16u    1.         0.         0.090985   0.02007    40.14u    
 0.35       809.27u    1.         0.         0.090838   0.023524   47.049u   
 0.4       -803.39u    1.         0.         0.090984   0.02681    53.621u   
 0.45       797.58u    1.         0.         0.090839   0.029936   59.872u   
 0.5       -791.79u    1.         0.         0.090984   0.032909   65.817u   
 0.55       786.07u    1.         0.         0.090841   0.035736   71.473u   
 0.6       -780.36u    1.         0.         0.090983   0.038426   76.852u   
 0.65       774.71u    1.         0.         0.090842   0.040985   81.969u   
 0.7       -769.09u    1.         0.         0.090983   0.043418   86.836u   
 0.75       763.53u    1.         0.         0.090844   0.045733   91.465u   
 0.8       -757.99u    1.         0.         0.090982   0.047934   95.869u   
 0.85       752.5u     1.         0.         0.090845   0.050028   100.06u   
 0.9       -747.04u    1.         0.         0.090982   0.05202    104.04u   
 0.95       741.63u    1.         0.         0.090846   0.053915   107.83u   
 1.        -736.25u    1.         0.         0.090981   0.055717   111.43u   
t1= 0.0329087166298533
#Time       v(M1.l1)   v(ndd)     I(M1)      I(R1)      omega(M1)  v(nsens)  
 1.        -736.25u    1.         0.         0.090981   0.055717   111.43u   
 1.05      -422.23u    0.9        0.         0.081862   0.057209   114.42u   
 1.1        56.852u    0.8        0.         0.072727   0.058186   116.37u   
 1.15      -418.76u    0.7        0.         0.06368    0.058671   117.34u   
 1.2        53.404u    0.6        0.         0.054546   0.05869    117.38u   
 1.25      -415.34u    0.5        0.         0.045498   0.058264   116.53u   
 1.3        50.006u    0.4        0.         0.036364   0.057416   114.83u   
 1.35      -411.97u    0.3        0.         0.027315   0.056166   112.33u   
 1.4        46.657u    0.2        0.         0.018183   0.054533   109.07u   
 1.45      -408.64u    0.1        0.         0.0091328  0.052536   105.07u   
 1.5        43.357u   -6.218p     0.         621.57n    0.050194   100.39u   
 1.55      -405.37u   -0.1        0.        -0.0090497  0.047522   95.045u   
 1.6        40.104u   -0.2        0.        -0.018181   0.044538   89.075u   
 1.65      -402.14u   -0.3        0.        -0.027232   0.041255   82.511u   
 1.7        36.898u   -0.4        0.        -0.036364   0.03769    75.38u    
 1.75      -398.96u   -0.5        0.        -0.045415   0.033855   67.71u    
 1.8        33.739u   -0.6        0.        -0.054546   0.029764   59.528u   
 1.85      -395.83u   -0.7        0.        -0.063598   0.025429   50.858u   
 1.9        30.625u   -0.8        0.        -0.072728   0.020863   41.725u   
 1.95      -392.74u   -0.9        0.        -0.081781   0.016075   32.151u   
 2.         27.556u   -1.         0.        -0.090911   0.011079   22.157u   
t2= 0.0501938525004333
s2= 100.387705001u
#Time       v(M1.l1)   v(ndd)     I(M1)      I(R1)      omega(M1)  v(nsens)  
 2.         27.556u   -1.         0.        -0.090911   0.011079   22.157u   
 2.05       119.6u    -0.95       0.        -0.086374   0.0062151  12.43u    
 2.1        118.78u   -0.9        0.        -0.081829   0.0018107  3.6215u   
 2.15       63.223u   -0.85       0.        -0.077279  -0.0021582 -4.3165u   
 2.2        118.38u   -0.8        0.        -0.072738  -0.0057117 -11.423u   
 2.25       63.624u   -0.75       0.        -0.068188  -0.00887   -17.74u    
 2.3        117.99u   -0.7        0.        -0.063648  -0.011652  -23.305u   
 2.35       64.019u   -0.65       0.        -0.059098  -0.014077  -28.154u   
 2.4        117.6u    -0.6        0.        -0.054558  -0.016162  -32.324u   
 2.45       64.409u   -0.55       0.        -0.050007  -0.017923  -35.846u   
 2.5        117.21u   -0.5        0.        -0.045467  -0.019376  -38.753u   
 2.55       64.792u   -0.45       0.        -0.040917  -0.020537  -41.074u   
 2.6        116.83u   -0.4        0.        -0.036376  -0.021419  -42.839u   
 2.65       65.171u   -0.35       0.        -0.031826  -0.022037  -44.074u   
 2.7        116.46u   -0.3        0.        -0.027285  -0.022403  -44.805u   
 2.75       65.543u   -0.25       0.        -0.022735  -0.022529  -45.058u   
 2.8        116.09u   -0.2        0.        -0.018194  -0.022427  -44.854u   
 2.85       65.91u    -0.15       0.        -0.013644  -0.022109  -44.217u   
 2.9        115.73u   -0.1        0.        -0.0091034 -0.021584  -43.168u   
 2.95       66.272u   -0.05       0.        -0.0045534 -0.020863  -41.726u   
 3.         115.37u    123.02p    0.        -12.302u   -0.019956  -39.911u   
 3.05       1.8142n    17.258p    0.        -1.7258u   -0.018981  -37.963u   
 3.1        1.5568n    16.415p    0.        -1.6415u   -0.018055  -36.109u   
 3.15       1.6484n    15.614p    0.        -1.5614u   -0.017173  -34.346u   
 3.2        1.4015n    14.851p    0.        -1.4851u   -0.016335  -32.67u    
 3.25       1.4982n    14.126p    0.        -1.4126u   -0.015537  -31.074u   
 3.3        1.2611n    13.436p    0.        -1.3436u   -0.014779  -29.557u   
 3.35       1.3623n    12.78p     0.        -1.278u    -0.014057  -28.114u   
 3.4        1.1342n    12.156p    0.        -1.2156u   -0.013371  -26.742u   
 3.45       1.2393n    11.563p    0.        -1.1563u   -0.012718  -25.436u   
 3.5        1.0195n    10.998p    0.        -1.0998u   -0.012097  -24.194u   
 3.55       1.1278n    10.461p    0.        -1.0461u   -0.011506  -23.013u   
 3.6        915.79p    9.95p      0.        -995.05n   -0.010945  -21.889u   
 3.65       1.0269n    9.465p     0.        -946.48n   -0.01041   -20.821u   
 3.7        822.07p    9.003p     0.        -900.26n   -0.009902  -19.804u   
 3.75       935.52p    8.563p     0.        -856.32n   -0.0094186 -18.837u   
 3.8        737.37p    8.145p     0.        -814.49n   -0.0089587 -17.917u   
 3.85       852.74p    7.747p     0.        -774.74n   -0.0085213 -17.043u   
 3.9        660.83p    7.369p     0.        -736.9n    -0.0081053 -16.211u   
 3.95       777.75p    7.009p     0.        -700.94n   -0.0077095 -15.419u   
 4.         591.68p    6.667p     0.        -666.7n    -0.0073331 -14.666u   
 4.05       709.82p    6.342p     0.        -634.16n   -0.0069751 -13.95u    
 4.1        529.2p     6.032p     0.        -603.19n   -0.0066345 -13.269u   
 4.15       648.27p    5.738p     0.        -573.75n   -0.0063106 -12.621u   
 4.2        472.76p    5.457p     0.        -545.73n   -0.0060025 -12.005u   
 4.25       592.49p    5.191p     0.        -519.09n   -0.0057094 -11.419u   
 4.3        421.79p    4.937p     0.        -493.74n   -0.0054307 -10.861u   
 4.35       541.95p    4.696p     0.        -469.64n   -0.0051655 -10.331u   
 4.4        375.75p    4.467p     0.        -446.7n    -0.0049133 -9.8267u   
 4.45       496.13p    4.249p     0.        -424.9n    -0.0046735 -9.3469u   
 4.5        334.19p    4.041p     0.        -404.15n   -0.0044453 -8.8906u   
 4.55       454.59p    3.844p     0.        -384.43n   -0.0042282 -8.4565u   
 4.6        296.67p    3.656p     0.        -365.65n   -0.0040218 -8.0436u   
 4.65       416.93p    3.478p     0.        -347.81n   -0.0038254 -7.6509u   
 4.7        262.81p    3.308p     0.        -330.81n   -0.0036387 -7.2773u   
 4.75       382.77p    3.147p     0.        -314.67n   -0.003461  -6.922u    
 4.8        232.25p    2.993p     0.        -299.3n    -0.003292  -6.5841u   
 4.85       351.79p    2.847p     0.        -284.7n    -0.0031313 -6.2626u   
 4.9        204.68p    2.708p     0.        -270.78n   -0.0029784 -5.9569u   
 4.95       323.68p    2.576p     0.        -257.58n   -0.002833  -5.666u    
 5.         179.82p    2.45p      0.        -244.99n   -0.0026947 -5.3894u   
t3=-0.0120970388483536
Gnucap   System status
iterations: op=0, dc=4, tran=316, fourier=0, total=812
transient timesteps: accepted=157, rejected=6, total=163
nodes: user=3, subckt=0, model=3, total=6
dctran density=66.7%, ac density=66.7%
