#Time       v(ndd)     v(M1.l1)   omega(M1) 
 0.         0.         0.         0.        
 0.05       0.5        909.09E-6  0.0011495 
 0.1        1.         909.1E-6   0.0045322 
 0.15       1.         7.6925E-9  0.0087044 
 0.2        1.         7.1127E-9  0.012665  
 0.25       1.         6.7697E-9  0.016435  
 0.3        1.         6.447E-9   0.01998   
 0.35       1.         6.1398E-9  0.023357  
 0.4        1.         5.8471E-9  0.026572  
 0.45       1.         5.5685E-9  0.029635  
 0.5        1.         5.3031E-9  0.032551  
 0.55       1.         5.0503E-9  0.035328  
 0.6        1.         4.8096E-9  0.037973  
 0.65       1.         4.5804E-9  0.040492  
 0.7        1.         4.3621E-9  0.042891  
 0.75       1.         4.1542E-9  0.045176  
 0.8        1.         3.9562E-9  0.047352  
 0.85       1.         3.7676E-9  0.049424  
 0.9        1.         3.5881E-9  0.051397  
 0.95       1.         3.4171E-9  0.053276  
 1.         1.         3.2542E-9  0.055066  
 1.05       0.9       -181.82E-6  0.056439  
 1.1        0.8       -181.82E-6  0.057301  
 1.15       0.7       -181.82E-6  0.057601  
 1.2        0.6       -181.82E-6  0.057453  
 1.25       0.5       -181.82E-6  0.05688   
 1.3        0.4       -181.82E-6  0.055902  
 1.35       0.3       -181.82E-6  0.054537  
 1.4        0.2       -181.82E-6  0.052804  
 1.45       0.1       -181.82E-6  0.050721  
 1.5       -209.2E-12 -181.82E-6  0.048305  
 1.55      -0.1       -181.82E-6  0.04557   
 1.6       -0.2       -181.82E-6  0.042533  
 1.65      -0.3       -181.82E-6  0.039208  
 1.7       -0.4       -181.82E-6  0.035609  
 1.75      -0.5       -181.83E-6  0.031748  
 1.8       -0.6       -181.83E-6  0.027639  
 1.85      -0.7       -181.83E-6  0.023292  
 1.9       -0.8       -181.83E-6  0.01872   
 1.95      -0.9       -181.83E-6  0.013932  
 2.        -1.        -181.83E-6  0.0089402 
 2.05      -0.95       90.901E-6  0.0042656 
 2.1       -0.9        90.902E-6  28.009E-6 
 2.15      -0.85       90.902E-6 -0.0038114 
 2.2       -0.8        90.903E-6 -0.0072181 
 2.25      -0.75       90.904E-6 -0.01021   
 2.3       -0.7        90.904E-6 -0.012838  
 2.35      -0.65       90.905E-6 -0.015121  
 2.4       -0.6        90.906E-6 -0.017074  
 2.45      -0.55       90.906E-6 -0.018714  
 2.5       -0.5        90.907E-6 -0.020056  
 2.55      -0.45       90.907E-6 -0.021115  
 2.6       -0.4        90.908E-6 -0.02184   
 2.65      -0.35       90.908E-6 -0.022315  
 2.7       -0.3        90.909E-6 -0.02255   
 2.75      -0.25       90.909E-6 -0.022558  
 2.8       -0.2        90.909E-6 -0.022349  
 2.85      -0.15       90.91E-6  -0.021934  
 2.9       -0.1        90.91E-6  -0.021322  
 2.95      -0.05       90.91E-6  -0.020522  
 3.         100.4E-12  90.911E-6 -0.019545  
 3.05       17.07E-12  160.64E-9 -0.018613  
 3.1        16.12E-12  1.9015E-9 -0.017726  
 3.15       15.35E-12  1.5367E-9 -0.016881  
 3.2        14.62E-12  1.463E-9  -0.016077  
 3.25       13.92E-12  1.3932E-9 -0.01531   
 3.3        13.26E-12  1.3268E-9 -0.014581  
 3.35       12.63E-12  1.2636E-9 -0.013886  
 3.4        12.02E-12  1.2034E-9 -0.013224  
 3.45       11.45E-12  1.146E-9  -0.012594  
 3.5        10.9E-12   1.0914E-9 -0.011994  
 3.55       10.38E-12  1.0394E-9 -0.011422  
 3.6        9.89E-12   989.9E-12 -0.010878  
 3.65       9.418E-12  942.7E-12 -0.010359  
 3.7        8.969E-12  897.7E-12 -0.0098654 
 3.75       8.542E-12  855.E-12  -0.0093952 
 3.8        8.135E-12  814.2E-12 -0.0089474 
 3.85       7.747E-12  775.4E-12 -0.008521  
 3.9        7.378E-12  738.5E-12 -0.0081149 
 3.95       7.026E-12  703.3E-12 -0.0077281 
 4.         6.691E-12  669.7E-12 -0.0073598 
 4.05       6.372E-12  637.8E-12 -0.007009  
 4.1        6.069E-12  607.4E-12 -0.006675  
 4.15       5.779E-12  578.5E-12 -0.0063568 
 4.2        5.504E-12  550.9E-12 -0.0060539 
 4.25       5.242E-12  524.6E-12 -0.0057653 
 4.3        4.992E-12  499.6E-12 -0.0054906 
 4.35       4.754E-12  475.8E-12 -0.0052289 
 4.4        4.527E-12  453.1E-12 -0.0049797 
 4.45       4.312E-12  431.6E-12 -0.0047423 
 4.5        4.106E-12  411.E-12  -0.0045163 
 4.55       3.91E-12   391.4E-12 -0.0043011 
 4.6        3.724E-12  372.7E-12 -0.0040961 
 4.65       3.547E-12  355.E-12  -0.0039009 
 4.7        3.378E-12  338.1E-12 -0.0037149 
 4.75       3.217E-12  321.9E-12 -0.0035379 
 4.8        3.063E-12  306.6E-12 -0.0033693 
 4.85       2.917E-12  292.E-12  -0.0032087 
 4.9        2.778E-12  278.1E-12 -0.0030558 
 4.95       2.646E-12  264.8E-12 -0.0029101 
 5.         2.52E-12   252.2E-12 -0.0027714 
Gnucap   System status
iterations: op=0, dc=4, tran=790, fourier=0, total=992
transient timesteps: accepted=193, rejected=5, total=198
nodes: user=3, subckt=0, model=3, total=6
dctran density=66.7%, ac density=66.7%
