name   ...
have 4 nodes. model: 1 sckt: 0

n1       n1 matrix_number 2, user_number 3 nm[t]  vdc 
n2       n2 matrix_number 3, user_number 2 nm[t]  vdc 
np       np matrix_number 4, user_number 1 nm[t]  vdc 
-p1
p1.v_p_gnd.br p1.v_p_gnd.br matrix_number 4, user_number 1 nm[t]  vdc 
*.options method=euler 
*.options initsc 1 
.model mymul mul ( gain=2)
p1 ( np n2 n1 ) mymul
R1 ( np n2 )  100.
C1 ( n2 0 )  1.u
#           v(n1)      v(n2)      v(np)      i(R1)     
 0.         0.         0.         0.         0.        
#Time       v(n1)      v(n2)      v(np)      dis(n1)    dis(n2)    dis(np)    v(C1)     
 0.         0.         0.         0.         ??         ??         ??         0.        
 120.56E-9  1.515E-6   757.46E-9  2.295E-12  ??         ??         ??         757.46E-9 
 241.13E-9  3.0301E-6  1.515E-6   9.181E-12  ??         ??         ??         1.515E-6  
 972.4E-9   12.22E-6   6.1097E-6  149.3E-12  ??         ??         ??         6.1097E-6 
 4.9516E-6  62.223E-6  31.112E-6  3.8717E-9  ??         ??         ??         31.112E-6 
 263.28E-6  0.0033085  0.0016542  10.946E-6  ??         ??         ??         0.0016542 
 0.0037467  0.047065   0.023539   0.0022157  ??         ??         ??         0.023539  
 0.016855   0.21023    0.10571    0.044445   ??         ??         ??         0.10571   
 0.044165   0.52694    0.27395    0.28871    ??         ??         ??         0.27395   
 0.087612   0.89164    0.5231     0.93283    ??         ??         ??         0.5231    
 0.125      1.         0.70711    1.4142     ??         ??         ??         0.70711   
 0.1875     0.70711    0.92388    1.3066     ??         ??         ??         0.92388   
 0.25       0.         1.        -10.E-15    ??         ??         ??         1.        
 0.3125    -0.70711    0.92388   -1.3066     ??         ??         ??         0.92388   
 0.375     -1.         0.70711   -1.4142     ??         ??         ??         0.70711   
 0.4375    -0.70711    0.38268   -0.5412     ??         ??         ??         0.38268   
 0.5        0.         64.25E-12  0.         ??         ??         ??         64.25E-12 
 0.5625     0.70711   -0.38268   -0.5412     ??         ??         ??        -0.38268   
 0.625      1.        -0.70711   -1.4142     ??         ??         ??        -0.70711   
 0.6875     0.70711   -0.92388   -1.3066     ??         ??         ??        -0.92388   
 0.75       0.        -1.         10.E-15    ??         ??         ??        -1.        
 0.8125    -0.70711   -0.92388    1.3066     ??         ??         ??        -0.92388   
 0.875     -1.        -0.70711    1.4142     ??         ??         ??        -0.70711   
 0.9375    -0.70711   -0.38268    0.5412     ??         ??         ??        -0.38268   
 1.         0.        -63.05E-12  0.         ??         ??         ??        -63.05E-12 
