name   ...
have 3 nodes. model: 0 sckt: 0 adp 0

n1       n1 matrix_number 1, user_number 3 nm[t]  vdc  0.
n2       n2 matrix_number 2, user_number 2 nm[t]  vdc  0.
np       np matrix_number 3, user_number 1 nm[t]  vdc  0.
-p1
#           v(n1)      v(n2)      v(np)      i(R1)     
 0.         0.         0.         0.         0.        
*.options method=euler 
.model mymul mul ( gain=2)
p1 ( np n2 n1 )  mymul 
V1 ( n1 0 ) sin offset=NA( 0.) amplitude= 1. frequency= 2. delay=NA( 0.) damping=NA( 0.) zero=1 peak=1
V1 ( n2 0 ) sin offset=NA( 0.) amplitude= 1. frequency= 1. delay=NA( 0.) damping=NA( 0.) zero=1 peak=1
R1 ( np n2 )  100.
C1 ( n2 0 )  1.u
#Time       v(n1)      v(n2)      v(np)      hidden(0)  dis(n1)    dis(n2)    dis(np)    v(C1)     
 0.         0.         0.         0.         1.         0.         0.         0.         0.        
 71.845E-9  902.83E-9  451.35E-9  860.E-15   7.         0.         0.         0.         451.35E-9 
 111.86E-9  1.4056E-6  702.76E-9  2.046E-12  1.         0.         0.         0.         702.76E-9 
 151.87E-9  1.9085E-6  954.17E-9  3.737E-12  1.         0.         0.         0.         954.17E-9 
 397.88E-9  4.9999E-6  2.4999E-6  25.25E-12  1.         0.         0.         0.         2.4999E-6 
 15.721E-6  197.56E-6  98.779E-6  39.039E-9  1.         0.         0.         0.         98.779E-6 
 245.55E-6  0.0030857  0.0015428  9.5215E-6  1.         0.         0.         0.         0.0015428 
 0.0036004  0.045229   0.02262    0.0020462  1.         0.         0.         0.         0.02262   
 0.016375   0.20432    0.1027     0.04197    1.         0.         0.         0.         0.1027    
 0.043698   0.52194    0.27112    0.28302    1.         0.         0.         0.         0.27112   
 0.087166   0.88909    0.52071    0.92592    1.         0.         0.         0.         0.52071   
 0.125      1.         0.70711    1.4142     1.         0.         0.         0.         0.70711   
 0.1875     0.70711    0.92388    1.3066     1.         0.         0.         0.         0.92388   
 0.25       0.         1.         100.E-9    1.         0.         0.         0.         1.        
 0.3125    -0.70711    0.92388   -1.3066     1.         0.         0.         0.         0.92388   
 0.375     -1.         0.70711   -1.4142     1.         0.         0.         0.         0.70711   
 0.4375    -0.70711    0.38268   -0.5412     1.         0.         0.         0.         0.38268   
 0.5        0.         64.25E-12  0.         1.         0.         0.         0.         64.25E-12 
 0.5625     0.70711   -0.38268   -0.5412     1.         0.         0.         0.        -0.38268   
 0.625      1.        -0.70711   -1.4142     1.         0.         0.         0.        -0.70711   
 0.6875     0.70711   -0.92388   -1.3066     1.         0.         0.         0.        -0.92388   
 0.75       0.        -1.        -100.E-9    1.         0.         0.         0.        -1.        
 0.8125    -0.70711   -0.92388    1.3066     1.         0.         0.         0.        -0.92388   
 0.875     -1.        -0.70711    1.4142     1.         0.         0.         0.        -0.70711   
 0.9375    -0.70711   -0.38268    0.5412     1.         0.         0.         0.        -0.38268   
 1.         0.        -63.05E-12  0.         1.         0.         0.         0.        -63.05E-12 
