name   ...
have 4 nodes. model: 1 sckt: 0 adp 0

n1       n1 matrix_number 2, user_number 3 nm[t]  vdc  0.
n2       n2 matrix_number 3, user_number 2 nm[t]  vdc  0.
np       np matrix_number 4, user_number 1 nm[t]  vdc  0.
-p1
-p1.v_p_GND
br p1.v_p_GND.br matrix_number 1, user_number 4 nm[t]  vdc  0.
*.options method=euler 
*.options initsc 1 
.model mymul mul ( gain=2)
p1 ( np n2 n1 ) mymul
R1 ( np n2 )  100.
C1 ( n2 0 )  1.u
#           v(n1)      v(n2)      v(np)      i(R1)     
 0.         0.         0.         0.         0.        
#Time       v(n1)      v(n2)      v(np)      dis(n1)    dis(n2)    dis(np)    v(C1)     
 0.         0.         0.         0.         2.         2.         2.         0.        
 0.01       0.12533    0.062791   0.015739   0.         0.         0.         0.062791  
 0.02       0.24869    0.12533    0.062338   0.         0.         0.         0.12533   
 0.03       0.36812    0.18738    0.13796    0.         0.         0.         0.18738   
 0.04       0.48175    0.24869    0.23961    0.         0.         0.         0.24869   
 0.05       0.58779    0.30902    0.36327    0.         0.         0.         0.30902   
 0.0975     0.94088    0.57501    1.082      0.         0.         0.         0.57501   
 0.125      1.         0.70711    1.4142     0.         0.         0.         0.70711   
 0.1875     0.70711    0.92388    1.3066     0.         0.         0.         0.92388   
 0.25       0.         1.        -10.E-15    0.         0.         0.         1.        
 0.3125    -0.70711    0.92388   -1.3066     0.         0.         0.         0.92388   
 0.375     -1.         0.70711   -1.4142     0.         0.         0.         0.70711   
 0.4375    -0.70711    0.38268   -0.5412     0.         0.         0.         0.38268   
 0.5        0.         64.74E-12  0.         0.         0.         0.         64.74E-12 
 0.5625     0.70711   -0.38268   -0.5412     0.         0.         0.        -0.38268   
 0.625      1.        -0.70711   -1.4142     0.         0.         0.        -0.70711   
 0.6875     0.70711   -0.92388   -1.3066     0.         0.         0.        -0.92388   
 0.75       0.        -1.         10.E-15    0.         0.         0.        -1.        
 0.8125    -0.70711   -0.92388    1.3066     0.         0.         0.        -0.92388   
 0.875     -1.        -0.70711    1.4142     0.         0.         0.        -0.70711   
 0.9375    -0.70711   -0.38268    0.5412     0.         0.         0.        -0.38268   
 1.         0.        -62.56E-12  0.         0.         0.         0.        -62.56E-12 
