name   ...
have 3 nodes. model: 0 sckt: 0 adp 0

n1       n1 matrix_number 1, user_number 3 nm[t]  vdc  0.
n2       n2 matrix_number 2, user_number 2 nm[t]  vdc  0.
np       np matrix_number 3, user_number 1 nm[t]  vdc  0.
-p1
#           v(n1)      v(n2)      v(np)      i(R1)     
 0.         0.         0.         0.         0.        
*.options method=euler 
*.options initsc 1 
.model mymul mul ( gain=2)
p1 ( np n2 n1 )  mymul 
V1 ( n1 0 ) sin offset=NA( 0.) amplitude= 1. frequency= 2. delay=NA( 0.) damping=NA( 0.) zero=1 peak=1
V1 ( n2 0 ) sin offset=NA( 0.) amplitude= 1. frequency= 1. delay=NA( 0.) damping=NA( 0.) zero=1 peak=1
R1 ( np n2 )  100.
C1 ( n2 0 )  1.u
#Time       v(n1)      v(n2)      v(np)      hidden(0)  dis(n1)    dis(n2)    dis(np)    v(C1)     
 0.         0.         0.         0.         1.         0.         0.         0.         0.        
 0.01       0.12533    0.062791   0.015739   1.         0.         0.         0.         0.062791  
 0.02       0.24869    0.12533    0.062338   1.         0.         0.         0.         0.12533   
 0.03       0.36812    0.18738    0.13796    1.         0.         0.         0.         0.18738   
 0.04       0.48175    0.24869    0.23961    1.         0.         0.         0.         0.24869   
 0.05       0.58779    0.30902    0.36327    1.         0.         0.         0.         0.30902   
 0.0975     0.94088    0.57501    1.082      1.         0.         0.         0.         0.57501   
 0.125      1.         0.70711    1.4142     1.         0.         0.         0.         0.70711   
 0.1875     0.70711    0.92388    1.3066     1.         0.         0.         0.         0.92388   
 0.25       0.         1.         100.E-9    1.         0.         0.         0.         1.        
 0.3125    -0.70711    0.92388   -1.3066     1.         0.         0.         0.         0.92388   
 0.375     -1.         0.70711   -1.4142     1.         0.         0.         0.         0.70711   
 0.4375    -0.70711    0.38268   -0.5412     1.         0.         0.         0.         0.38268   
 0.5        0.         64.74E-12  0.         1.         0.         0.         0.         64.74E-12 
 0.5625     0.70711   -0.38268   -0.5412     1.         0.         0.         0.        -0.38268   
 0.625      1.        -0.70711   -1.4142     1.         0.         0.         0.        -0.70711   
 0.6875     0.70711   -0.92388   -1.3066     1.         0.         0.         0.        -0.92388   
 0.75       0.        -1.        -100.E-9    1.         0.         0.         0.        -1.        
 0.8125    -0.70711   -0.92388    1.3066     1.         0.         0.         0.        -0.92388   
 0.875     -1.        -0.70711    1.4142     1.         0.         0.         0.        -0.70711   
 0.9375    -0.70711   -0.38268    0.5412     1.         0.         0.         0.        -0.38268   
 1.         0.        -62.56E-12  0.         1.         0.         0.         0.        -62.56E-12 
