//* this file is part of gnucap-adms 
//* Copyright (C) 2013 Felix Salfelder 
//* License GPLv3 (or later) 
paramset myota someop;\
 .Rf=NA( 10.); .R1=NA( 100.Meg); .output_range=NA( 0.7); .f0dB=1e6; .Sr=5e5; .Rout=NA( 75.); .Rinn=NA( 2.G); .Rinp=NA( 2.G); .Rin=NA( 2.Meg); .gain=1820000;\
endparmset

// myota OTA0 (nout, nss, ninp, nout, ndd, nss);
module op103b (0,0,0,0,0);
myota #() OTA0 (.out(0),.vref(0),.inp(0),.inn(0),.vddp(0),.vddn(0));
endmodule // op103b

myota #() OTA1 (.out(nout),.vref(nss),.inp(ninp),.inn(ninn),.vddp(ndd),.vddn(nss));
//* Xop1 nout ninp ninn ndd nss op103b 
vsource #( DC -2.) Vss (.p(nss),.n(0));
vsource #( DC  5.) Vdd (.p(ndd),.n(0));
vsource #( DC  1.) V2 (.p(ninn),.n(0));
vsource #(sin.offset(NA( 0.)), .amplitude( 1.u), .frequency( 1.), .delay(NA( 0.)), .damping(NA( 0.)), .zero(1), .peak(1)) vin (.p(ninp),.n(ninn));
#Time       v(ndd)     v(ninn)    v(ninp)    v(nout)    v(nss)     v(v1)      v(vin)    
 0.         5.         1.         1.         1.5002    -2.        -1.9998     0.        
 0.01       5.         1.         1.         1.504     -2.        -1.996      62.791n   
 0.02       5.         1.         1.         1.5097    -2.        -1.9903     125.33n   
 0.03       5.         1.         1.         1.519     -2.        -1.981      187.38n   
 0.04       5.         1.         1.         1.5319    -2.        -1.9681     248.69n   
 0.065263   5.         1.         1.         1.5784    -2.        -1.9216     398.66n   
 0.090526   5.         1.         1.         1.6432    -2.        -1.8568     538.62n   
 0.13187    5.         1.         1.         1.7788    -2.        -1.7212     736.94n   
 0.17321    5.         1.         1.         1.9384    -2.        -1.5616     885.83n   
 0.21455    5.         1.         1.         2.1056    -2.        -1.3944     975.29n   
 0.25       5.         1.         1.         2.2431    -2.        -1.2569     1.u       
 0.3125     5.         1.         1.         2.4394    -2.        -1.0606     923.88n   
 0.375      5.         1.         1.         2.5455    -2.        -0.95451    707.11n   
 0.4375     5.         1.         1.         2.535     -2.        -0.96497    382.68n   
 0.5        5.         1.         1.         2.4013    -2.        -1.0987     0.        
 0.6        5.         1.         1.         1.9785    -2.        -1.5215    -587.79n   
 0.7        5.         1.         1.         1.4254    -2.        -2.0746    -951.06n   
 0.75       5.         1.         1.         1.1552    -2.        -2.3448    -1.u       
 0.8        5.         1.         1.         0.92788   -2.        -2.5721    -951.06n   
 0.85       5.         1.         1.         0.76433   -2.        -2.7357    -809.02n   
 0.9        5.         1.         1.         0.67929   -2.        -2.8207    -587.79n   
 0.95       5.         1.         1.         0.68007   -2.        -2.8199    -309.02n   
 1.         5.         1.         1.         0.76572   -2.        -2.7343     0.        
#           v(ndd)     v(ninn)    v(ninp)    v(nout)    v(nss)     v(v1)      v(vin)    
 0.         5.         1.         1.         1.5002    -2.        -1.9998     0.        
 100.n      5.         1.         1.         1.6822    -2.        -1.8178     100.n     
 200.n      5.         1.         1.         1.8642    -2.        -1.6358     200.n     
 300.n      5.         1.         1.         2.0461    -2.        -1.4539     300.n     
 400.n      5.         1.         1.         2.2281    -2.        -1.2719     400.n     
 500.n      5.         1.         1.         2.4101    -2.        -1.0899     500.n     
 600.n      5.         1.         1.         2.5921    -2.        -0.90791    600.n     
 700.n      5.         1.         1.         2.7741    -2.        -0.72593    700.n     
 800.n      5.         1.         1.         2.9561    -2.        -0.54395    800.n     
 900.n      5.         1.         1.         3.138     -2.        -0.36196    900.n     
 1.u        5.         1.         1.         3.2       -2.        -0.3        1.u       
