* note: nodenames case-sensitive 
Vcc ( ndd 0 ) vdd
Vcc1 ( 0 ndd_minus ) vdd
V1 ( nin_p 0 ) sin offset= 0. amplitude=ampl frequency=freq delay=NA( 0.) damping=NA( 0.)
#Time       v(ndd)     v(ndd_minus) v(nin_p)   v(nout0)   v(nout1)   v(nvbias) 
 0.         1.7       -1.7        5.f        999.15p    0.99915    1.        
 0.1        1.7       -1.7        2.9389u    0.41715    1.4163     1.        
 0.2        1.7       -1.7        4.7553u    0.85414    1.6987     1.        
 0.3        1.7       -1.7        4.7553u    0.97303    1.6987     1.        
 0.4        1.7       -1.7        2.9389u    0.72341    1.6662     1.        
 0.5        1.7       -1.7        5.f        0.19287    1.1903     1.        
 0.6        1.7       -1.7       -2.9389u   -0.40858    0.59052    1.        
 0.7        1.7       -1.7       -4.7553u   -0.85331    0.14584    1.        
 0.8        1.7       -1.7       -4.7553u   -0.97295    0.026203   1.        
 0.9        1.7       -1.7       -2.9389u   -0.72096    0.27819    1.        
 1.         1.7       -1.7        5.f       -0.19874    0.80041    1.        
#Time       v(ndd)     v(ndd_minus) v(nin_p)   v(nout0)   v(nout1)   v(nvbias) 
 1.         1.7       -1.7        5.f       -0.19874    0.80041    1.        
 1.1        1.7       -1.7        1.1756     1.7003     1.7003     1.        
 1.2        1.7       -1.7        1.9021     1.7003     1.7003     1.        
 1.3        1.7       -1.7        1.9021     1.7003     1.7003     1.        
 1.4        1.7       -1.7        1.1756     1.7003     1.7003     1.        
 1.5        1.7       -1.7        5.f        1.6987     1.6987     1.        
 1.6        1.7       -1.7       -1.1756    -1.7003    -1.7003     1.        
 1.7        1.7       -1.7       -1.9021    -1.7003    -1.7003     1.        
 1.8        1.7       -1.7       -1.9021    -1.7003    -1.7003     1.        
 1.9        1.7       -1.7       -1.1756    -1.7003    -1.7003     1.        
 2.         1.7       -1.7        2.f       -1.6987    -1.6987     1.        
#Time       v(ndd)     v(ndd_minus) v(nin_p)   v(nout0)   v(nout1)   v(nvbias) 
 0.         1.7       -1.7        5.f        999.15p    0.99915    1.        
 1.u        1.7       -1.7        1.1756     0.482~     1.48~      1.        
 2.u        1.7       -1.7        1.9021     0.982~     1.7015     1.        
 3.u        1.7       -1.7        1.9021     1.48~      1.699~     1.        
 4.u        1.7       -1.7        1.1756     1.7015     1.6993     1.        
 5.u        1.7       -1.7        5.f        1.6998     1.62~      1.        
 6.u        1.7       -1.7       -1.1756     1.238~     1.252~     1.        
 7.u        1.7       -1.7       -1.9021     0.738~     0.752~     1.        
 8.u        1.7       -1.7       -1.9021     0.238~     0.25~      1.        
 9.u        1.7       -1.7       -1.1756    -0.260~    -0.246~     1.        
 10.u       1.7       -1.7        4.f       -0.510~    -0.496~     1.        
x= 8.47~u   
