//* note: nodenames case-sensitive 
paramset myota opamp;\
 .Rf=NA( 10.); .r1=NA( 100.Meg); .f0dB=1e6; .Sr=5e5; .Rout=NA( 75.); .Rinn=NA( 2.G); .Rinp=NA( 2.G); .Rin=NA( 2.Meg); .A0=2e5;\
endparmset

// biased by 1V 
myota #() OTA1 (.out(nout1),.inp(nin_p),.inn(0),.vddp(ndd),.vddn(ndd_minus),.vref(nvbias));
// unbiased 
myota #() OTA0 (.out(nout0),.inp(nin_p),.inn(0),.vddp(ndd),.vddn(ndd_minus));
// bypass paramset 
opamp #() OTA2 (.out(nout2),.inp(nin_p),.inn(0),.vddp(ndd),.vddn(ndd_minus));
* note: nodenames case-sensitive 
.model myota opamp ( Rf=NA( 10.) r1=NA( 100.Meg) f0dB=1e6 Sr=5e5 Rout=NA( 75.) Rinn=NA( 2.G) Rinp=NA( 2.G) Rin=NA( 2.Meg) A0=2e5)
*// biased by 1V 
OTA1 ( nout1 nin_p 0 ndd ndd_minus nvbias )  myota 
*// unbiased 
OTA0 ( nout0 nin_p 0 ndd ndd_minus )  myota 
*// bypass paramset 
OTA2 ( nout2 nin_p 0 ndd ndd_minus )  opamp 
#Time       v(ndd)     v(ndd_minus) v(nin_p)   v(nout0)   v(nout1)   v(nout2)   v(nvbias)  v(v1)     
 0.         1.7       -1.7        5.f        999.15p    0.99915    999.9p     1.         0.9999    
 0.1        1.7       -1.7        2.9389u    0.41695    1.4161     0.41727    1.         1.4172    
 0.2        1.7       -1.7        4.7553u    0.85413    1.6987     0.85477    1.         1.7       
 0.3        1.7       -1.7        4.7553u    0.97303    1.6987     0.97376    1.         1.7       
 0.4        1.7       -1.7        2.9389u    0.72341    1.6662     0.72395    1.         1.6675    
 0.5        1.7       -1.7        5.f        0.19287    1.1903     0.19301    1.         1.1912    
 0.6        1.7       -1.7       -2.9389u   -0.40858    0.59052   -0.40889    1.         0.59096   
 0.7        1.7       -1.7       -4.7553u   -0.85331    0.14584   -0.85395    1.         0.14595   
 0.8        1.7       -1.7       -4.7553u   -0.97295    0.026203  -0.97368    1.         0.026223  
 0.9        1.7       -1.7       -2.9389u   -0.72096    0.27819   -0.72151    1.         0.27839   
 1.         1.7       -1.7        5.f       -0.19874    0.80041   -0.19889    1.         0.80101   
#Time       v(ndd)     v(ndd_minus) v(nin_p)   v(nout0)   v(nout1)   v(nout2)   v(nvbias)  v(v1)     
 1.         1.7       -1.7        5.f       -0.19874    0.80041   -0.19889    1.         0.80101   
 1.1        1.7       -1.7        1.1756     1.7003     1.7003     1.7016     1.         1.7016    
 1.2        1.7       -1.7        1.9021     1.7003     1.7003     1.7016     1.         1.7016    
 1.3        1.7       -1.7        1.9021     1.7003     1.7003     1.7016     1.         1.7016    
 1.4        1.7       -1.7        1.1756     1.7003     1.7003     1.7016     1.         1.7016    
 1.5        1.7       -1.7        5.f        1.6987     1.6987     1.7        1.         1.7       
 1.6        1.7       -1.7       -1.1756    -1.7003    -1.7003    -1.7016     1.        -1.7016    
 1.7        1.7       -1.7       -1.9021    -1.7003    -1.7003    -1.7016     1.        -1.7016    
 1.8        1.7       -1.7       -1.9021    -1.7003    -1.7003    -1.7016     1.        -1.7016    
 1.9        1.7       -1.7       -1.1756    -1.7003    -1.7003    -1.7016     1.        -1.7016    
 2.         1.7       -1.7        2.f       -1.6987    -1.6987    -1.7        1.        -1.7       
#Time       v(ndd)     v(ndd_minus) v(nin_p)   v(nout0)   v(nout1)   v(nout2)   v(nvbias)  v(v1)     
 0.         1.7       -1.7        5.f        999.15p    0.99915    999.9p     1.         0.9999    
 1.u        1.7       -1.7        1.1756     0.4828     1.482      0.48317    1.         1.4831    
 2.u        1.7       -1.7        1.9021     0.98241    1.7015     0.98314    1.         1.7027    
 3.u        1.7       -1.7        1.9021     1.482      1.6993     1.4831     1.         1.7006    
 4.u        1.7       -1.7        1.1756     1.7015     1.6993     1.7027     1.         1.7006    
 5.u        1.7       -1.7        5.f        1.6998     1.6269     1.7011     1.         1.6282    
 6.u        1.7       -1.7       -1.1756     1.238      1.2522     1.239      1.         1.2531    
 7.u        1.7       -1.7       -1.9021     0.73839    0.75258    0.73894    1.         0.75314   
 8.u        1.7       -1.7       -1.9021     0.23875    0.25297    0.23893    1.         0.25316   
 9.u        1.7       -1.7       -1.1756    -0.26088   -0.24663   -0.26107    1.        -0.24681   
 10.u       1.7       -1.7        4.f       -0.51068   -0.4964    -0.51106    1.        -0.49677   
x= 8.47785218360906u
