.options initsc 1 
         ^ ? what's this?
.options initsc 1 
                ^ ? what's this?
#           v(n1)      v(nr)     
 0.         0.         0.        
.model mypid pid ( d=1m i=1 p=1)
pid1 ( nr 0 n1 0 ) mypid
V1 ( n1 0 ) pulse iv= 0. pv= 1. delay= 0. rise= 0.002 fall= 0.001 width= 0.004 period= 0.012
#Time       v(n1)      v(nr)      state0(pid1) state1(pid1)
 0.         0.         0.         0.         0.        
 500.E-6    0.25       0.75006    62.5E-6    0.25      
 0.001      0.5        1.0003     250.E-6    0.5       
 0.0015     0.75       1.2506     562.5E-6   0.75      
 0.002      1.         1.501      0.001      1.        
 0.0025     1.         0.5015     0.0015     1.        
 0.003      1.         0.502      0.002      1.        
 0.0035     1.         1.5025     0.0025     1.        
 0.004      1.         0.503      0.003      1.        
 0.0045     1.         1.5035     0.0035     1.        
 0.005      1.         0.504      0.004      1.        
 0.0055     1.         1.5045     0.0045     1.        
 0.006      1.         0.505      0.005      1.        
 0.0065     0.5       -0.99462    0.005375   0.5       
 0.007      2.E-15    -1.4945     0.0055     1.746E-15 
 0.0075     0.         1.5055     0.0055     0.        
 0.008      0.        -1.4945     0.0055     0.        
 0.0085     0.         1.5055     0.0055     0.        
 0.009      0.        -1.4945     0.0055     0.        
 0.0095     0.         1.5055     0.0055     0.        
 0.01       0.        -1.4945     0.0055     0.        
