V1 ( nin 0 ) pulse iv= 1. pv= 0. delay=NA( 0.) rise= 200.u fall=NA( 0.) width=NA( Inf) period=NA( Inf)
*sin(frequency=1k, amplitude=1, offset=1) 
name   ...
have 2 nodes. model: 0 sckt: 0 adp 0

nin      nin matrix_number 2, user_number 1 nm[t]  vdc  0.
nout1    nout1 matrix_number 1, user_number 2 nm[t]  vdc  0.
-rc1
#           v(nin)     v(nout1)  
 0.         0.         0.        
-1.         1.         1.        
-2.         1.         1.        
 0.         1.         1.        
#Time       v(nin)     v(nout1)   hidden(0) 
 0.         1.         1.         1.        
 50.u       0.75       0.99055    8.        
 100.u      0.5        0.9613     1.        
 150.u      0.25       0.9144     1.        
 200.u      42.562p    0.85125    1.        
 250.u      39.162p    0.78325    4.        
 300.u      36.029p    0.72059    1.        
 350.u      33.147p    0.66294    1.        
 400.u      30.495p    0.60991    1.        
 450.u      28.056p    0.56111    1.        
 500.u      25.811p    0.51623    1.        
 550.u      23.746p    0.47493    1.        
 600.u      21.847p    0.43693    1.        
 650.u      20.099p    0.40198    1.        
 700.u      18.491p    0.36982    1.        
 750.u      17.012p    0.34023    1.        
 800.u      15.651p    0.31302    1.        
 850.u      14.399p    0.28797    1.        
 900.u      13.247p    0.26494    1.        
 950.u      12.187p    0.24374    1.        
 0.001      11.212p    0.22424    1.        
v1= 0.5162252
Gnucap   System status
iterations: op=0, dc=3, tran=93, fourier=0, total=127
transient timesteps: accepted=30, rejected=1, total=31
nodes: user=2, subckt=0, model=0, total=2
dctran density=100.0%, ac density=50.0%
