V1 ( nin 0 ) pulse iv= 1. pv= 0. delay=NA( 0.) rise= 200.u fall=NA( 0.) width=NA( Inf) period=NA( Inf)
*sin(frequency=1k, amplitude=1, offset=1) 
name   ...
have 2 nodes. model: 0 sckt: 0

nin      nin matrix_number 2, user_number 1 nm[t]  vdc 
nout1    nout1 matrix_number 1, user_number 2 nm[t]  vdc 
-rc1
#           v(nin)     v(nout1)  
 0.         0.         0.        
-1.         1.         1.        
-2.         1.         1.        
 0.         1.         1.        
#Time       v(nin)     v(nout1)   hidden(0) 
 0.         1.         1.         0.        
 500.n      0.9975     1.         0.        
 1.u        0.995      0.99999    0.        
 10.8u      0.946      0.99952    0.        
 50.u       0.75       0.98993    0.        
 100.u      0.5        0.96074    0.        
 150.u      0.25       0.91388    0.        
 200.u      42.538p    0.85077    0.        
 201.06u    42.463p    0.84926    1.        
 201.87u    42.406p    0.84813    0.        
 202.45u    42.365p    0.8473     0.        
 203.04u    42.323p    0.84647    0.        
 250.u      39.136p    0.78271    0.        
 300.u      36.005p    0.7201     0.        
 350.u      33.124p    0.66249    0.        
 400.u      30.474p    0.60949    0.        
 450.u      28.036p    0.56073    0.        
 500.u      25.794p    0.51587    0.        
 550.u      23.73p     0.4746     0.        
 600.u      21.832p    0.43663    0.        
 650.u      20.085p    0.4017     0.        
 700.u      18.478p    0.36957    0.        
 750.u      17.p       0.34       0.        
 800.u      15.64p     0.3128     0.        
 850.u      14.389p    0.28778    0.        
 900.u      13.238p    0.26475    0.        
 950.u      12.179p    0.24357    0.        
 0.001      11.204p    0.22409    0.        
v1= 0.515871158052957
Gnucap   System status
iterations: op=0, dc=3, tran=84, fourier=0, total=116
transient timesteps: accepted=28, rejected=1, total=29
nodes: user=2, subckt=0, model=0, total=2
dctran density=100.0%, ac density=100.0%
