V1 ( nin 0 ) pulse iv= 1. pv= 0. delay=NA( 0.) rise= 200.u fall=NA( 0.) width=NA( Inf) period=NA( Inf)
*sin(frequency=1k, amplitude=1, offset=1) 
name   ...
have 2 nodes. model: 0 sckt: 0 adp 0

nin      nin matrix_number 2, user_number 1 nm[t]  vdc  0.
nout1    nout1 matrix_number 1, user_number 2 nm[t]  vdc  0.
-rc1
#           v(nin)     v(nout1)  
 0.         0.         0.        
-1.         1.         1.        
-2.         1.         1.        
 0.         1.         1.        
#Time       v(nin)     v(nout1)   hidden(0) 
 0.         1.         1.         1.        
 500.n      0.9975     1.         1.        
 1.u        0.995      0.99999    1.        
 1.5u       0.9925     0.99999    1.        
 2.u        0.99       0.99998    1.        
 2.5u       0.9875     0.99997    1.        
 50.u       0.75       0.98998    1.        
 100.u      0.5        0.96078    1.        
 150.u      0.25       0.91392    1.        
 200.u      42.54p     0.85081    1.        
 208.33u    41.958p    0.83915    2.        
 216.67u    41.379p    0.82758    1.        
 250.u      39.142p    0.78284    1.        
 300.u      36.011p    0.72021    1.        
 350.u      33.13p     0.6626     1.        
 400.u      30.479p    0.60959    1.        
 450.u      28.041p    0.56082    1.        
 500.u      25.798p    0.51596    1.        
 550.u      23.734p    0.47468    1.        
 600.u      21.835p    0.43671    1.        
 650.u      20.088p    0.40177    1.        
 700.u      18.481p    0.36963    1.        
 750.u      17.003p    0.34006    1.        
 800.u      15.643p    0.31285    1.        
 850.u      14.391p    0.28782    1.        
 900.u      13.24p     0.2648     1.        
 950.u      12.181p    0.24361    1.        
 0.001      11.206p    0.22413    1.        
v1= 0.5159568
Gnucap   System status
iterations: op=0, dc=3, tran=87, fourier=0, total=119
transient timesteps: accepted=28, rejected=1, total=29
nodes: user=2, subckt=0, model=0, total=2
dctran density=100.0%, ac density=100.0%
