#Time       v(nin)     v(nout1)   hidden(0) 
 0.         0.         0.         0.        
 500.E-9    0.0025     2.0816E-6  0.        
 1.E-6      0.005      5.2036E-6  0.        
 1.8167E-6  0.0090833  14.774E-6  0.        
 5.2583E-6  0.026292   115.86E-6  0.        
 27.629E-6  0.13815    0.003121   0.        
 50.E-6     0.25       0.01011    0.        
 75.E-6     0.375      0.022453   0.        
 100.E-6    0.5        0.039393   0.        
 150.E-6    0.75       0.086242   0.        
 200.E-6    1.         0.14934    0.        
 250.E-6    1.         0.2174     0.        
 300.E-6    1.         0.28       0.        
 350.E-6    1.         0.3376     0.        
 400.E-6    1.         0.3906     0.        
 450.E-6    1.         0.43935    0.        
 500.E-6    1.         0.4842     0.        
 550.E-6    1.         0.52546    0.        
 600.E-6    1.         0.56343    0.        
 650.E-6    1.         0.59835    0.        
 700.E-6    1.         0.63048    0.        
 750.E-6    1.         0.66005    0.        
 800.E-6    1.         0.68724    0.        
 850.E-6    1.         0.71226    0.        
 900.E-6    1.         0.73528    0.        
 950.E-6    1.         0.75646    0.        
 0.001      1.         0.77594    0.        
#Time       v(nin)     v(nout1)   hidden(0) 
 0.001      1.         0.77594    0.        
 0.0010005  0.9975     0.77613    0.        
 0.00105    0.75       0.78386    0.        
 0.0010995  0.5025     0.77137    0.        
 0.0011     0.5        0.77115    0.        
 0.00115    0.25       0.73946    0.        
 0.0012     34.52E-12  0.6903     0.        
 0.0012007  34.48E-12  0.68953    1.        
 0.0012011  34.45E-12  0.689      0.        
 0.0012015  34.43E-12  0.68859    0.        
 0.0012019  34.41E-12  0.68818    0.        
 0.0012259  33.05E-12  0.66111    0.        
 0.00125    31.76E-12  0.6351     0.        
 0.0013     29.22E-12  0.58429    0.        
 0.00135    26.88E-12  0.53755    0.        
 0.0014     24.73E-12  0.49455    0.        
 0.00145    22.75E-12  0.45498    0.        
 0.0015     20.93E-12  0.41858    0.        
 0.00155    19.25E-12  0.3851     0.        
 0.0016     17.71E-12  0.35429    0.        
 0.00165    16.3E-12   0.32595    0.        
 0.0017     14.99E-12  0.29987    0.        
 0.00175    13.79E-12  0.27588    0.        
 0.0018     12.69E-12  0.25381    0.        
 0.00185    11.67E-12  0.23351    0.        
 0.0019     10.74E-12  0.21482    0.        
 0.00195    9.882E-12  0.19764    0.        
 0.002      9.091E-12  0.18183    0.        
Gnucap   System status
iterations: op=0, dc=2, tran=83, fourier=0, total=221
transient timesteps: accepted=55, rejected=1, total=56
nodes: user=2, subckt=0, model=0, total=2
dctran density=100.0%, ac density=100.0%
