#Time       v(nin)     v(nout1)   hidden(0) 
 0.         0.         0.         0.        
 500.E-9    0.0025     2.0816E-6  0.        
 1.E-6      0.005      5.2036E-6  0.        
 1.5E-6     0.0075     10.405E-6  0.        
 2.E-6      0.01       17.685E-6  0.        
 2.5E-6     0.0125     27.042E-6  0.        
 26.25E-6   0.13125    0.0028158  0.        
 50.E-6     0.25       0.010106   0.        
 75.E-6     0.375      0.022448   0.        
 100.E-6    0.5        0.039389   0.        
 150.E-6    0.75       0.086238   0.        
 200.E-6    1.         0.14934    0.        
 202.27E-6  1.         0.15255    1.        
 203.76E-6  1.         0.15465    0.        
 250.E-6    1.         0.21738    0.        
 300.E-6    1.         0.27999    0.        
 350.E-6    1.         0.33759    0.        
 400.E-6    1.         0.39058    0.        
 450.E-6    1.         0.43934    0.        
 500.E-6    1.         0.48419    0.        
 550.E-6    1.         0.52545    0.        
 600.E-6    1.         0.56342    0.        
 650.E-6    1.         0.59834    0.        
 700.E-6    1.         0.63048    0.        
 750.E-6    1.         0.66004    0.        
 800.E-6    1.         0.68724    0.        
 850.E-6    1.         0.71226    0.        
 900.E-6    1.         0.73528    0.        
 950.E-6    1.         0.75645    0.        
 0.001      1.         0.77594    0.        
#Time       v(nin)     v(nout1)   hidden(0) 
 0.001      1.         0.77594    0.        
 0.0010005  0.9975     0.77612    0.        
 0.0010252  0.87375    0.78257    0.        
 0.00105    0.75       0.78375    0.        
 0.0011     0.5        0.77105    0.        
 0.00115    0.25       0.73937    0.        
 0.0012     34.51E-12  0.69022    0.        
 0.0012083  34.04E-12  0.68076    1.        
 0.0012167  33.57E-12  0.67137    0.        
 0.00125    31.75E-12  0.63508    0.        
 0.0013     29.21E-12  0.58428    0.        
 0.00135    26.88E-12  0.53753    0.        
 0.0014     24.73E-12  0.49453    0.        
 0.00145    22.75E-12  0.45497    0.        
 0.0015     20.93E-12  0.41857    0.        
 0.00155    19.25E-12  0.38509    0.        
 0.0016     17.71E-12  0.35428    0.        
 0.00165    16.3E-12   0.32594    0.        
 0.0017     14.99E-12  0.29986    0.        
 0.00175    13.79E-12  0.27587    0.        
 0.0018     12.69E-12  0.2538     0.        
 0.00185    11.68E-12  0.2335     0.        
 0.0019     10.74E-12  0.21482    0.        
 0.00195    9.882E-12  0.19763    0.        
 0.002      9.091E-12  0.18182    0.        
Gnucap   System status
iterations: op=0, dc=2, tran=77, fourier=0, total=228
transient timesteps: accepted=55, rejected=2, total=57
nodes: user=2, subckt=0, model=0, total=2
dctran density=100.0%, ac density=100.0%
