.model myrc rc ( r=200k c=3n)
V1 ( nin 0 ) pulse iv= 1. pv= 0. delay=NA( 0.) rise= 200.u fall=NA( 0.) width=NA( Inf) period=NA( Inf)
rc1 ( nin nout1 0 ) myrc
name   ...
have 2 nodes. model: 0 sckt: 0

nin      nin matrix_number 2, user_number 1 nm[t]  vdc 
nout1    nout1 matrix_number 1, user_number 2 nm[t]  vdc 
-rc1
-rc1.c1
-rc1.r1
#           v(nin)     v(nout1)  
 0.         0.         0.        
-1.         1.         1.        
-2.         1.         1.        
-3.         1.         1.        
 0.         1.         1.        
#Time       v(nin)     v(nout1)   hidden(0) 
 0.         1.         1.         0.        
 500.n      0.9975     1.         0.        
 1.u        0.995      0.99999    0.        
 1.5u       0.9925     0.99999    0.        
 2.u        0.99       0.99998    0.        
 50.u       0.75       0.98998    0.        
 100.u      0.5        0.96078    0.        
 150.u      0.25       0.91392    0.        
 200.u      42.54p     0.85081    0.        
 201.06u    42.465p    0.8493     1.        
 201.87u    42.408p    0.84817    0.        
 202.45u    42.367p    0.84734    0.        
 203.04u    42.325p    0.84651    0.        
 250.u      39.138p    0.78275    0.        
 300.u      36.007p    0.72013    0.        
 350.u      33.126p    0.66252    0.        
 400.u      30.476p    0.60952    0.        
 450.u      28.038p    0.56076    0.        
 500.u      25.795p    0.5159     0.        
 550.u      23.731p    0.47462    0.        
 600.u      21.833p    0.43665    0.        
 650.u      20.086p    0.40172    0.        
 700.u      18.479p    0.36958    0.        
 750.u      17.001p    0.34002    0.        
 800.u      15.641p    0.31282    0.        
 850.u      14.39p     0.28779    0.        
 900.u      13.238p    0.26477    0.        
 950.u      12.179p    0.24359    0.        
 0.001      11.205p    0.2241     0.        
v1= 0.515896036647242
Gnucap   System status
iterations: op=0, dc=4, tran=114, fourier=0, total=148
transient timesteps: accepted=29, rejected=1, total=30
nodes: user=2, subckt=0, model=0, total=2
dctran density=100.0%, ac density=100.0%
