if stamp 
#          

--- aa -------
 0.01 -0.01 
-0.01  0.01 
--- i ----
 0.,  0., 
-----

--- aa -------
 0.01 -0.01 
-0.01  0.01 
--- i ----
 0.,  0., 
-----
 0.        
ir stamp 
#          
 0.        

--- aa -------
 0.01       -0.01       
-0.01        0.01       
--- i ----
 0.        ,  0.        , 
-----
-1.        

--- aa -------
 0.01       -0.01       
-0.01        0.01       
--- i ----
 0.        ,  0.        , 
-----
-2.        
 0.        
vf stamp 
#          

--- aa -------
-100. -1.  1. 
-1.  1.p  0. 
 1.  0.  1.p 
--- i ----
 0.,  0.,  0., 
-----

--- aa -------
-100. -1.  1. 
-1.  1.p  0. 
 1.  0.  1.p 
--- i ----
 0.,  0.,  0., 
-----
 0.        
vr stamp 
#          

--- aa -------
-100. -1.  1. 
-1.  1.p  0. 
 1.  0.  1.p 
--- i ----
 0.,  0.,  0., 
-----

--- aa -------
-100. -1.  1. 
-1.  1.p  0. 
 1.  0.  1.p 
--- i ----
 0.,  0.,  0., 
-----
 0.        
==== sim resif ==== 
#           v(n)       v(p)       v(r1)      v(r2)      i(rgnd)    i(r2)      i(r1)      i(r1.v_p_n)
 0.         0.         0.         0.         0.         0.         0.         0.         0.        
-1.         0.         1.         0.        -1.         0.        -0.01       0.        -0.01      
-2.         0.         1.        -1.        -1.         0.        -0.01       0.        -0.01      
 0.         0.         1.        -1.        -1.         0.        -0.01       0.        -0.01      
#Time       v(n)       v(p)       i(r1)      v(r1)      i(v1)     
 0.         0.         1.         0.        -1.        -0.02      
 0.5        0.         1.         0.        -1.        -0.02      
 1.         0.         1.         0.        -1.        -0.02      
==== sim resir ==== 
#           v(n)       v(p)       v(r1)      v(r2)      i(rgnd)    i(r2)      i(r1)      i(r1.v_p_n)
 0.         0.         0.        -1.         0.         0.         0.         0.         0.        
-1.         0.         1.         0.        -1.         0.        -0.01       0.        -0.01      
-2.         0.         1.        -1.        -1.         0.        -0.01       0.        -0.01      
 0.         0.         1.        -1.        -1.         0.        -0.01       0.        -0.01      
#Time       v(n)       v(p)       i(r1)      v(r1)      i(v1)     
 0.         0.         1.         0.        -1.        -0.02      
 0.5        0.         1.         0.        -1.        -0.02      
 1.         0.         1.         0.        -1.        -0.02      
==== sim resvf ==== 
#           v(n)       v(p)       v(r1)      v(r2)      i(rgnd)    i(r2)      i(r1)      i(r1.v_p_n)
 0.         0.         0.         0.         0.         0.         0.         NaN        0.        
-1.         0.         1.         0.        -1.         0.        -0.01       0.        -0.01      
-2.         0.         1.        -1.        -1.         0.        -0.01      -0.01      -0.01      
 0.         0.         1.        -1.        -1.         0.        -0.01      -0.01      -0.01      
#Time       v(n)       v(p)       i(r1)      v(r1)      i(v1)     
 0.         0.         1.        -0.01      -1.        -0.02      
 0.5        0.         1.        -0.01      -1.        -0.02      
 1.         0.         1.        -0.01      -1.        -0.02      
==== sim resvr ==== 
#           v(n)       v(p)       v(r1)      v(r2)      i(rgnd)    i(r2)      i(r1)      i(r1.v_p_n)
 0.         0.         0.        -1.         0.         0.         0.        -0.01       0.        
-1.         0.         1.         0.        -1.         0.        -0.01       0.        -0.01      
-2.         0.         1.        -1.        -1.         0.        -0.01      -0.01      -0.01      
 0.         0.         1.        -1.        -1.         0.        -0.01      -0.01      -0.01      
#Time       v(n)       v(p)       i(r1)      v(r1)      i(v1)     
 0.         0.         1.        -0.01      -1.        -0.02      
 0.5        0.         1.        -0.01      -1.        -0.02      
 1.         0.         1.        -0.01      -1.        -0.02      
