* this file is part of gnucap-adms 
* Copyright (C) 2013 Felix Salfelder 
* License GPLv3 (or later) 
.model mydruck drucksensor ( C_waerm=5e-7 ub0=NA( 3.) d2=NA( 300.u) d1=NA( 50.u) a=NA( 0.77) k=NA( 1.8) lquerLuft=NA( 66.5u) lambda0=NA( 0.0256) Area=NA( 4.u) epsilon=NA( 0.03) sigma=NA( 56.7n) G_b=NA( 800.n) Rnull=6.2e3 beta=0.0054)
DR2 ( nout pout ninp ndd 0 )  mydruck 
* Xd nout npout np ndd nss mydruck 
Vdd ( ndd 0 )  DC  5.
vin ( ninp 0 ) pulse iv= 0. pv= 10. delay=NA( 0.) rise= 1. fall=NA( 0.) width=NA( Inf) period=NA( Inf)
#Time       v(ndd)     v(ninp)    v(nout)    v(pout)    T(DR2)    
 0.         5.         0.         2.5        3.536~     562.3~    
 0.01       5.         0.1        2.5        2.879~     366.4~    
 0.02       5.         0.2        2.5        2.5        294.79    
 0.03       5.         0.3        2.5        2.539~     306.03    
 0.031667   5.         0.31667    2.5        2.519~     303.04    
 0.033333   5.         0.33333    2.5        2.515~     302.46    
 0.034258   5.         0.34258    2.5        2.514~     302.35    
 0.035183   5.         0.35183    2.5        2.514~     302.28    
 0.036108   5.         0.36108    2.5        2.514~     302.23    
 0.038108   5.         0.38108    2.5        2.513~     302.13    
 0.040108   5.         0.40108    2.5        2.512~     302.05    
 0.044451   5.         0.44451    2.5        2.511~     301.89    
 0.048795   5.         0.48795    2.5        2.510~     301.77    
 0.059483   5.         0.59483    2.5        2.509~     301.53    
 0.07017    5.         0.7017     2.5        2.508~     301.37    
 0.080858   5.         0.80858    2.5        2.507~     301.25    
 0.096705   5.         0.96705    2.5        2.506~     301.12    
 0.11255    5.         1.1255     2.5        2.505~     301.03    
 0.1284     5.         1.284      2.5        2.505~     300.96    
 0.15652    5.         1.5652     2.5        2.504~     300.86    
 0.18463    5.         1.8463     2.5        2.504~     300.8     
 0.21275    5.         2.1275     2.5        2.504~     300.75    
 0.25906    5.         2.5906     2.5        2.503~     300.69    
 0.30537    5.         3.0537     2.5        2.503~     300.64    
 0.37483    5.         3.7483     2.5        2.503~     300.6     
 0.44429    5.         4.4429     2.5        2.502~     300.57    
 0.53691    5.         5.3691     2.5        2.502~     300.54    
 0.62953    5.         6.2953     2.5        2.502~     300.52    
 0.75302    5.         7.5302     2.5        2.502~     300.5     
 0.87651    5.         8.7651     2.5        2.502~     300.48    
 1.         5.         10.        2.5        2.502~     300.47    
#           v(ndd)     v(ninp)    v(nout)    v(pout)    T(DR2)    
 1.n        5.         1.n        2.5        3.536~     562.3~    
 2.n        5.         2.n        2.5        3.536~     562.3~    
 4.n        5.         4.n        2.5        3.536~     562.3~    
 8.n        5.         8.n        2.5        3.536~     562.3~    
 16.n       5.         16.n       2.5        3.536~     562.3~    
 32.n       5.         32.n       2.5        3.536~     562.3~    
 64.n       5.         64.n       2.5        3.536~     562.3~    
 128.n      5.         128.n      2.5        3.536~     562.3~    
 256.n      5.         256.n      2.5        3.536~     562.3~    
 512.n      5.         512.n      2.5        3.536~     562.3~    
 1.024u     5.         1.024u     2.5        3.536~     562.2~    
 2.048u     5.         2.048u     2.5        3.536~     562.2~    
 4.096u     5.         4.096u     2.5        3.535~     562.0~    
 8.192u     5.         8.192u     2.5        3.535~     561.7~    
 16.384u    5.         16.384u    2.5        3.533~     561.1~    
 32.768u    5.         32.768u    2.5        3.531~     560.0~    
 65.536u    5.         65.536u    2.5        3.525~     557.7~    
 131.07u    5.         131.07u    2.5        3.515~     553.2~    
 262.14u    5.         262.14u    2.5        3.493~     544.4~    
 524.29u    5.         524.29u    2.5        3.451~     527.8~    
 0.0010486  5.         0.0010486  2.5        3.372~     498.7~    
 0.0020972  5.         0.0020972  2.5        3.236~     454.7~    
 0.0041943  5.         0.0041943  2.5        3.046~     403.7~    
 0.0083886  5.         0.0083886  2.5        2.852~     360.9~    
 0.016777   5.         0.016777   2.5        2.704~     333.1~    
 0.033554   5.         0.033554   2.5        2.611~     317.4~    
 0.067109   5.         0.067109   2.5        2.559~     309.1~    
 0.13422    5.         0.13422    2.5        2.5317     304.9     
 0.26844    5.         0.26844    2.5        2.5174     302.74    
 0.53687    5.         0.53687    2.5        2.51       301.63    
 1.0737     5.         1.0737     2.5        2.5061     301.05    
 2.1475     5.         2.1475     2.5        2.504      300.74    
 4.295      5.         4.295      2.5        2.5029     300.57    
 8.5899     5.         8.5899     2.5        2.5022     300.48    
 17.18      5.         17.18      2.5        2.5019     300.43    
 34.36      5.         34.36      2.5        2.5018     300.41    
 68.719     5.         68.719     2.5        2.5017     300.4     
 137.44     5.         137.44     2.5        2.5016     300.39    
 274.88     5.         274.88     2.5        2.5016     300.39    
 549.76     5.         549.76     2.5        2.5016     300.39    
 1.0995K    5.         1.0995K    2.5        2.5016     300.39    
 2.199K     5.         2.199K     2.5        2.5016     300.38    
 4.398K     5.         4.398K     2.5        2.5016     300.38    
 8.7961K    5.         8.7961K    2.5        2.5016     300.38    
