.model mydruck drucksensor ( C_waerm=5e-7 ub0=NA( 3.) d2=NA( 300.u) d1=NA( 50.u) a=NA( 0.77) k=NA( 1.8) lquerLuft=NA( 66.5u) lambda0=NA( 0.0256) Area=NA( 4.u) epsilon=NA( 0.03) sigma=NA( 56.7n) G_b=NA( 800.n) Rnull=6.2e3 beta=0.0054)
DR2 ( nout pout ninp ndd 0 )  mydruck 
* Xd nout npout np ndd nss mydruck 
Vdd ( ndd 0 )  DC  5.
vin ( ninp 0 ) pulse iv= 0. pv= 10. delay=NA( 0.) rise= 1. fall=NA( 0.) width=NA( Inf) period=NA( Inf)
#Time       v(ndd)     v(ninp)    v(nout)    v(pout)    v(t1)      T(DR2)    
 0.         5.         0.         2.5        3.5362     289.18     562.33    
 0.01       5.         0.1        2.5        2.8795     93.293     366.44    
 0.02       5.         0.2        2.5        2.5        21.641     294.79    
 0.03       5.         0.3        2.5        2.5391     32.879     306.03    
 0.031667   5.         0.31667    2.5        2.5194     29.894     303.04    
 0.033333   5.         0.33333    2.5        2.5155     29.306     302.46    
 0.034258   5.         0.34258    2.5        2.5148     29.204     302.35    
 0.035183   5.         0.35183    2.5        2.5143     29.134     302.28    
 0.036108   5.         0.36108    2.5        2.514      29.08      302.23    
 0.038108   5.         0.38108    2.5        2.5133     28.981     302.13    
 0.040108   5.         0.40108    2.5        2.5127     28.898     302.05    
 0.044451   5.         0.44451    2.5        2.5117     28.743     301.89    
 0.048795   5.         0.48795    2.5        2.5109     28.616     301.77    
 0.059483   5.         0.59483    2.5        2.5093     28.384     301.53    
 0.07017    5.         0.7017     2.5        2.5082     28.223     301.37    
 0.080858   5.         0.80858    2.5        2.5074     28.103     301.25    
 0.096705   5.         0.96705    2.5        2.5066     27.973     301.12    
 0.11255    5.         1.1255     2.5        2.5059     27.878     301.03    
 0.1284     5.         1.284      2.5        2.5054     27.806     300.96    
 0.15652    5.         1.5652     2.5        2.5048     27.712     300.86    
 0.18463    5.         1.8463     2.5        2.5044     27.646     300.8     
 0.21275    5.         2.1275     2.5        2.504      27.596     300.75    
 0.25906    5.         2.5906     2.5        2.5036     27.536     300.69    
 0.30537    5.         3.0537     2.5        2.5033     27.494     300.64    
 0.37483    5.         3.7483     2.5        2.503      27.449     300.6     
 0.44429    5.         4.4429     2.5        2.5028     27.417     300.57    
 0.53691    5.         5.3691     2.5        2.5026     27.387     300.54    
 0.62953    5.         6.2953     2.5        2.5025     27.366     300.52    
 0.75302    5.         7.5302     2.5        2.5023     27.345     300.5     
 0.87651    5.         8.7651     2.5        2.5022     27.33      300.48    
 1.         5.         10.        2.5        2.5022     27.319     300.47    
#           v(ndd)     v(ninp)    v(nout)    v(pout)    v(t1)      T(DR2)    
 1.n        5.         1.n        2.5        3.5362     289.18     562.33    
 2.n        5.         2.n        2.5        3.5362     289.18     562.33    
 4.n        5.         4.n        2.5        3.5362     289.18     562.33    
 8.n        5.         8.n        2.5        3.5362     289.18     562.33    
 16.n       5.         16.n       2.5        3.5362     289.18     562.33    
 32.n       5.         32.n       2.5        3.5362     289.18     562.33    
 64.n       5.         64.n       2.5        3.5362     289.18     562.33    
 128.n      5.         128.n      2.5        3.5362     289.17     562.32    
 256.n      5.         256.n      2.5        3.5362     289.16     562.31    
 512.n      5.         512.n      2.5        3.5361     289.15     562.3     
 1.024u     5.         1.024u     2.5        3.536      289.11     562.26    
 2.048u     5.         2.048u     2.5        3.5359     289.04     562.19    
 4.096u     5.         4.096u     2.5        3.5355     288.89     562.04    
 8.192u     5.         8.192u     2.5        3.5349     288.6      561.75    
 16.384u    5.         16.384u    2.5        3.5335     288.02     561.17    
 32.768u    5.         32.768u    2.5        3.5308     286.87     560.02    
 65.536u    5.         65.536u    2.5        3.5255     284.57     557.72    
 131.07u    5.         131.07u    2.5        3.5148     280.05     553.2     
 262.14u    5.         262.14u    2.5        3.4935     271.25     544.4     
 524.29u    5.         524.29u    2.5        3.4517     254.66     527.81    
 0.0010486  5.         0.0010486  2.5        3.3724     225.53     498.68    
 0.0020972  5.         0.0020972  2.5        3.2361     181.55     454.7     
 0.0041943  5.         0.0041943  2.5        3.0465     130.61     403.76    
 0.0083886  5.         0.0083886  2.5        2.8526     87.811     360.96    
 0.016777   5.         0.016777   2.5        2.7043     59.957     333.11    
 0.033554   5.         0.033554   2.5        2.6113     44.263     317.41    
 0.067109   5.         0.067109   2.5        2.5592     35.99      309.14    
 0.13422    5.         0.13422    2.5        2.5316     31.747     304.9     
 0.26844    5.         0.26844    2.5        2.5173     29.588     302.74    
 0.53687    5.         0.53687    2.5        2.51       28.482     301.63    
 1.0737     5.         1.0737     2.5        2.5061     27.904     301.05    
 2.1475     5.         2.1475     2.5        2.504      27.593     300.74    
 4.295      5.         4.295      2.5        2.5029     27.423     300.57    
 8.5899     5.         8.5899     2.5        2.5022     27.332     300.48    
 17.18      5.         17.18      2.5        2.5019     27.284     300.43    
 34.36      5.         34.36      2.5        2.5018     27.26      300.41    
 68.719     5.         68.719     2.5        2.5017     27.247     300.4     
 137.44     5.         137.44     2.5        2.5016     27.241     300.39    
 274.88     5.         274.88     2.5        2.5016     27.237     300.39    
 549.76     5.         549.76     2.5        2.5016     27.236     300.39    
 1.0995K    5.         1.0995K    2.5        2.5016     27.235     300.39    
 2.199K     5.         2.199K     2.5        2.5016     27.235     300.38    
 4.398K     5.         4.398K     2.5        2.5016     27.235     300.38    
 8.7961K    5.         8.7961K    2.5        2.5016     27.234     300.38    
Gnucap   System status
iterations: op=0, dc=198, tran=163, fourier=0, total=393
transient timesteps: accepted=31, rejected=1, total=32
nodes: user=4, subckt=0, model=1, total=5
dctran density=100.0%, ac density=100.0%
