name   ...
have 5 nodes. model: 2 sckt: 0

n1       n1 matrix_number 5, user_number 1 nm[t]  vdc 
n2       n2 matrix_number 3, user_number 3 nm[t]  vdc 
nin      nin matrix_number 4, user_number 2 nm[t]  vdc 
-p1
p1.v_out_gnd.br p1.v_out_gnd.br matrix_number 5, user_number 1 nm[t]  vdc 
-p2
p2.v_out_gnd.br p2.v_out_gnd.br matrix_number 5, user_number 1 nm[t]  vdc 
.model mysin sin_ ( igain=2 amplitude=NA( 1.) phase=NA( 0.))
.model mycos sin_ ( igain=2 amplitude=NA( 1.) phase=3.1415926/2)
p1 ( n1 nin )  mysin 
p2 ( n2 nin )  mycos 
.print dc v(nodes) i(R*) 
                     ^ ? no match
#           v(n1)      v(n2)      v(nin)    
 0.         0.0031853  0.99999   -3.14      
#Time       v(n1)      v(n2)      v(nin)    
 0.         0.0031853  0.99999   -3.14      
 0.001      0.0044413  0.99999   -3.1394    
 0.002      0.0056973  0.99998   -3.1387    
 0.051      0.067191   0.99774   -3.108     
 0.1        0.12843    0.99172   -3.0772    
 0.2        0.25165    0.96782   -3.0144    
 0.3        0.37091    0.92867   -2.9516    
 0.4        0.48432    0.87489   -2.8888    
 0.5        0.5901     0.80733   -2.826     
 0.6        0.68659    0.72705   -2.7632    
 0.7        0.77226    0.63531   -2.7004    
 0.8        0.84576    0.53357   -2.6376    
 0.9        0.90594    0.42341   -2.5748    
 1.         0.95184    0.30659   -2.512     
 1.1        0.98275    0.18494   -2.4492    
 1.2        0.99818    0.060374  -2.3864    
 1.3        0.99788   -0.065143  -2.3236    
 1.4        0.98185   -0.18963   -2.2608    
 1.5        0.95037   -0.31114   -2.198     
 1.6        0.9039    -0.42774   -2.1352    
 1.7        0.8432    -0.5376    -2.0724    
 1.8        0.76921   -0.63899   -2.0096    
 1.9        0.68311   -0.73032   -1.9468    
 2.         0.58624   -0.81014   -1.884     
 2.1        0.48013   -0.8772    -1.8212    
 2.2        0.36647   -0.93043   -1.7584    
 2.3        0.24702   -0.96901   -1.6956    
 2.4        0.12369   -0.99232   -1.6328    
 2.5       -0.0015927 -1.        -1.57      
 2.6       -0.12685   -0.99192   -1.5072    
 2.7       -0.25011   -0.96822   -1.4444    
 2.8       -0.36943   -0.92926   -1.3816    
 2.9       -0.48293   -0.87566   -1.3188    
 3.        -0.58882   -0.80827   -1.256     
 3.1       -0.68543   -0.72814   -1.1932    
 3.2       -0.77124   -0.63654   -1.1304    
 3.3       -0.84491   -0.53491   -1.0676    
 3.4       -0.90526   -0.42486   -1.0048    
 3.5       -0.95135   -0.30811   -0.942     
 3.6       -0.98245   -0.18651   -0.8792    
 3.7       -0.99808   -0.061964  -0.8164    
 3.8       -0.99798    0.063553  -0.7536    
 3.9       -0.98216    0.18807   -0.6908    
 4.        -0.95086    0.30962   -0.628     
 4.1       -0.90458    0.4263    -0.5652    
 4.2       -0.84405    0.53626   -0.5024    
 4.3       -0.77023    0.63777   -0.4396    
 4.4       -0.68427    0.72923   -0.3768    
 4.5       -0.58753    0.8092    -0.314     
 4.6       -0.48153    0.87643   -0.2512    
 4.7       -0.36795    0.92985   -0.1884    
 4.8       -0.24857    0.96861   -0.1256    
 4.9       -0.12527    0.99212   -0.0628    
 5.        -2.E-15     1.        -1.E-15    
 5.1        0.12527    0.99212    0.0628    
 5.2        0.24857    0.96861    0.1256    
 5.3        0.36795    0.92985    0.1884    
 5.4        0.48153    0.87643    0.2512    
 5.5        0.58753    0.8092     0.314     
 5.6        0.68427    0.72923    0.3768    
 5.7        0.77023    0.63777    0.4396    
 5.8        0.84405    0.53626    0.5024    
 5.9        0.90458    0.4263     0.5652    
 6.         0.95086    0.30962    0.628     
 6.1        0.98216    0.18807    0.6908    
 6.2        0.99798    0.063553   0.7536    
 6.3        0.99808   -0.061964   0.8164    
 6.4        0.98245   -0.18651    0.8792    
 6.5        0.95135   -0.30811    0.942     
 6.6        0.90526   -0.42486    1.0048    
 6.7        0.84491   -0.53491    1.0676    
 6.8        0.77124   -0.63654    1.1304    
 6.9        0.68543   -0.72814    1.1932    
 7.         0.58882   -0.80827    1.256     
 7.1        0.48293   -0.87566    1.3188    
 7.2        0.36943   -0.92926    1.3816    
 7.3        0.25011   -0.96822    1.4444    
 7.4        0.12685   -0.99192    1.5072    
 7.5        0.0015927 -1.         1.57      
 7.6       -0.12369   -0.99232    1.6328    
 7.7       -0.24702   -0.96901    1.6956    
 7.8       -0.36647   -0.93043    1.7584    
 7.9       -0.48013   -0.8772     1.8212    
 8.        -0.58624   -0.81014    1.884     
 8.1       -0.68311   -0.73032    1.9468    
 8.2       -0.76921   -0.63899    2.0096    
 8.3       -0.8432    -0.5376     2.0724    
 8.4       -0.9039    -0.42774    2.1352    
 8.5       -0.95037   -0.31114    2.198     
 8.6       -0.98185   -0.18963    2.2608    
 8.7       -0.99788   -0.065143   2.3236    
 8.8       -0.99818    0.060374   2.3864    
 8.9       -0.98275    0.18494    2.4492    
 9.        -0.95184    0.30659    2.512     
 9.1       -0.90594    0.42341    2.5748    
 9.2       -0.84576    0.53357    2.6376    
 9.3       -0.77226    0.63531    2.7004    
 9.4       -0.68659    0.72705    2.7632    
 9.5       -0.5901     0.80733    2.826     
 9.6       -0.48432    0.87489    2.8888    
 9.7       -0.37091    0.92867    2.9516    
 9.8       -0.25165    0.96782    3.0144    
 9.9       -0.12843    0.99172    3.0772    
 10.       -0.0031853  0.99999    3.14      
