.model mycoil subcoil ( r0=NA( 10.K))
lm ( nm 0 )  mycoil 
V1 ( n1 0 ) pulse iv= 0. pv= 1. delay= 0. rise= 0.001 fall=NA( 0.) width=NA( Inf) period=NA( Inf)
Ra ( n1 na )  1.K
Rb ( n1 nb )  1.K
Rm ( n1 nm )  1.K
* builtin coil for comparison 
Lb ( nb 0 )  1.
#Time       v(n1)      v(na)      v(nb)      v(nm)      i(Ra)      i(Rb)      i(Rm)      v(lm)      v(Lb)      inductance(Lb)
 0.         0.         0.         0.         0.         0.         0.         0.         ??         0.         1.        
 500.u      0.5        0.5        0.39371    0.39371    500.f      106.29u    106.29u    ??         0.39371    1.        
 0.001      1.         1.         0.63269    0.63269    1.p        367.31u    367.31u    ??         0.63269    1.        
 0.0015     1.         1.         0.3829     0.3829     1.p        617.1u     617.1u     ??         0.3829     1.        
 0.002      1.         1.         0.22974    0.22974    1.p        770.26u    770.26u    ??         0.22974    1.        
 0.0025     1.         1.         0.13785    0.13785    1.p        862.15u    862.15u    ??         0.13785    1.        
 0.003      1.         1.         0.082707   0.082707   1.p        917.29u    917.29u    ??         0.082707   1.        
 0.0035     1.         1.         0.049624   0.049624   1.p        950.38u    950.38u    ??         0.049624   1.        
 0.004      1.         1.         0.029775   0.029775   1.p        970.23u    970.23u    ??         0.029775   1.        
 0.0045     1.         1.         0.017865   0.017865   1.p        982.14u    982.14u    ??         0.017865   1.        
 0.005      1.         1.         0.010719   0.010719   1.p        989.28u    989.28u    ??         0.010719   1.        
 0.0055     1.         1.         0.0064313  0.0064313  1.p        993.57u    993.57u    ??         0.0064313  1.        
 0.006      1.         1.         0.0038588  0.0038588  1.p        996.14u    996.14u    ??         0.0038588  1.        
 0.0065     1.         1.         0.0023153  0.0023153  1.p        997.68u    997.68u    ??         0.0023153  1.        
 0.007      1.         1.         0.0013892  0.0013892  1.p        998.61u    998.61u    ??         0.0013892  1.        
 0.0075     1.         1.         833.5u     0.0023153  1.p        999.17u    997.68u    ??         833.5u     1.        
 0.008      1.         1.         500.1u    -92.611u    1.p        999.5u     0.0010001  ??         500.1u     1.        
 0.0085     1.         1.         300.06u   -55.566u    1.p        999.7u     0.0010001  ??         300.06u    1.        
 0.009      1.         1.         180.04u   -92.611u    1.p        999.82u    0.0010001  ??         180.04u    1.        
 0.0095     1.         1.         108.02u    3.7044u    1.p        999.89u    0.001      ??         108.02u    1.        
 0.01       1.         1.         64.813u   -151.88u    1.p        999.94u    0.0010002  ??         64.813u    1.        
