.model mycoil subcoil ( r0=NA( 10.K))
lm ( nm 0 )  mycoil 
V1 ( n1 0 ) pulse iv= 0. pv= 1. delay= 0. rise= 0.001 fall=NA( 0.) width=NA( Inf) period=NA( Inf)
Ra ( n1 na )  1.K
Rb ( n1 nb )  1.K
Rm ( n1 nm )  1.K
* builtin coil for comparison 
Lb ( nb 0 )  1.
#Time       v(n1)      v(na)      v(nb)      v(nm)      i(Ra)      i(Rb)      i(Rm)      v(lm)      v(Lb)      inductance(Lb)
 0.         0.         0.         0.         0.         0.         0.         0.         ??         0.         1.        
 500.u      0.5        0.5        0.39371    0.39371    500.f      106.29u    106.29u    ??         0.39371    1.        
 0.001      1.         1.         0.63269    0.63269    1.p        367.31u    367.31u    ??         0.63269    1.        
 0.0015     1.         1.         0.38274    0.38274    1.p        617.26u    617.26u    ??         0.38274    1.        
 0.002      1.         1.         0.23187    0.23187    1.p        768.13u    768.13u    ??         0.23187    1.        
 0.0025     1.         1.         0.13912    0.13912    1.p        860.88u    860.88u    ??         0.13912    1.        
 0.003      1.         1.         0.083475   0.083475   1.p        916.53u    916.53u    ??         0.083475   1.        
 0.0035     1.         1.         0.050085   0.050085   1.p        949.92u    949.92u    ??         0.050085   1.        
 0.004      1.         1.         0.030051   0.030051   1.p        969.95u    969.95u    ??         0.030051   1.        
 0.0045     1.         1.         0.018031   0.018031   1.p        981.97u    981.97u    ??         0.018031   1.        
 0.005      1.         1.         0.010818   0.010818   1.p        989.18u    989.18u    ??         0.010818   1.        
 0.0055     1.         1.         0.006491   0.006491   1.p        993.51u    993.51u    ??         0.006491   1.        
 0.006      1.         1.         0.0038946  0.0038946  1.p        996.11u    996.11u    ??         0.0038946  1.        
 0.0065     1.         1.         0.0023368  0.0023368  1.p        997.66u    997.66u    ??         0.0023368  1.        
 0.007      1.         1.         0.0014021  0.0014021  1.p        998.6u     998.6u     ??         0.0014021  1.        
 0.0075     1.         1.         841.23u    0.0023368  1.p        999.16u    997.66u    ??         841.23u    1.        
 0.008      1.         1.         504.74u   -93.47u     1.p        999.5u     0.0010001  ??         504.74u    1.        
 0.0085     1.         1.         302.84u   -56.082u    1.p        999.7u     0.0010001  ??         302.84u    1.        
 0.009      1.         1.         181.71u   -93.47u     1.p        999.82u    0.0010001  ??         181.71u    1.        
 0.0095     1.         1.         109.02u    3.7388u    1.p        999.89u    0.001      ??         109.02u    1.        
 0.01       1.         1.         65.414u   -153.29u    1.p        999.93u    0.0010002  ??         65.414u    1.        
