.model mycoil subcoil ( r0=NA( 10.K))
lm ( nm 0 ) mycoil
V1 ( n1 0 ) pulse iv= 0. pv= 1. delay= 0. rise= 0.001 fall=NA( 0.) width=NA( Inf) period=NA( Inf)
Ra ( n1 na )  1.K
Rb ( n1 nb )  1.K
Rm ( n1 nm )  1.K
* builtin coil for comparison 
Lb ( nb 0 )  1.
#Time       v(n1)      v(na)      v(nb)      v(nm)      i(Ra)      i(Rb)      i(Rm)      v(lm)      v(Lb)      inductance(Lb)
 0.         0.         0.         0.         0.         0.         0.         0.         ??         0.         1.        
 500.u      0.5        0.5        0.39366    0.39366    500.f      106.34u    106.34u    ??         0.39366    1.        
 0.001      1.         1.         0.63266    0.63266    1.p        367.34u    367.34u    ??         0.63266    1.        
 0.0015     1.         1.         0.38272    0.38272    1.p        617.28u    617.28u    ??         0.38272    1.        
 0.002      1.         1.         0.23152    0.23152    1.p        768.48u    768.48u    ??         0.23152    1.        
 0.0025     1.         1.         0.13891    0.13891    1.p        861.09u    861.09u    ??         0.13891    1.        
 0.003      1.         1.         0.083348   0.083348   1.p        916.65u    916.65u    ??         0.083348   1.        
 0.0035     1.         1.         0.050009   0.050009   1.p        949.99u    949.99u    ??         0.050009   1.        
 0.004      1.         1.         0.030005   0.030005   1.p        969.99u    969.99u    ??         0.030005   1.        
 0.0045     1.         1.         0.018003   0.018003   1.p        982.u      982.u      ??         0.018003   1.        
 0.005      1.         1.         0.010802   0.010802   1.p        989.2u     989.2u     ??         0.010802   1.        
 0.0055     1.         1.         0.0064812  0.0064812  1.p        993.52u    993.52u    ??         0.0064812  1.        
 0.006      1.         1.         0.0038887  0.0038887  1.p        996.11u    996.11u    ??         0.0038887  1.        
 0.0065     1.         1.         0.0023332  0.0023332  1.p        997.67u    997.67u    ??         0.0023332  1.        
 0.007      1.         1.         0.0013999  0.0013999  1.p        998.6u     998.6u     ??         0.0013999  1.        
 0.0075     1.         1.         839.96u    839.96u    1.p        999.16u    999.16u    ??         839.96u    1.        
 0.008      1.         1.         503.98u    503.98u    1.p        999.5u     999.5u     ??         503.98u    1.        
 0.0085     1.         1.         302.39u    302.39u    1.p        999.7u     999.7u     ??         302.39u    1.        
 0.009      1.         1.         181.43u    181.43u    1.p        999.82u    999.82u    ??         181.43u    1.        
 0.0095     1.         1.         108.86u    108.86u    1.p        999.89u    999.89u    ??         108.86u    1.        
 0.01       1.         1.         65.315u    65.315u    1.p        999.93u    999.93u    ??         65.315u    1.        
Gnucap   System status
iterations: op=0, dc=0, tran=152, fourier=0, total=192
transient timesteps: accepted=38, rejected=2, total=40
nodes: user=4, subckt=0, model=0, total=4
dctran density=62.5%, ac density=62.5%
