.model mycoil subcoil ( r0=NA( 10.K))
lm ( nm 0 )  mycoil 
V1 ( n1 0 ) pulse iv= 0. pv= 1. delay= 0. rise= 0.001 fall=NA( 0.) width=NA( Inf) period=NA( Inf)
Ra ( n1 na )  1.K
Rb ( n1 nb )  1.K
Rm ( n1 nm )  1.K
* builtin coil for comparison 
Lb ( nb 0 )  1.
#Time       v(n1)      v(na)      v(nb)      v(nm)      i(Ra)      i(Rb)      i(Rm)      v(lm)      v(Lb)      inductance(Lb)
 0.         0.         0.         0.         0.         0.         0.         0.         ??         0.         1.        
 500.u      0.5        0.5        0.39371    0.39373    500.f      106.29u    106.27u    ??         0.39371    1.        
 0.001      1.         1.         0.63269    0.6328     1.p        367.31u    367.2u     ??         0.63269    1.        
 0.0015     1.         1.         0.38323    0.38346    1.p        616.77u    616.54u    ??         0.38323    1.        
 0.002      1.         1.         0.23183    0.23225    1.p        768.17u    767.75u    ??         0.23183    1.        
 0.0025     1.         1.         0.1391     0.13967    1.p        860.9u     860.33u    ??         0.1391     1.        
 0.003      1.         1.         0.083459   0.08416    1.p        916.54u    915.84u    ??         0.083459   1.        
 0.0035     1.         1.         0.050075   0.050869   1.p        949.92u    949.13u    ??         0.050075   1.        
 0.004      1.         1.         0.030045   0.030905   1.p        969.95u    969.1u     ??         0.030045   1.        
 0.0045     1.         1.         0.018027   0.018933   1.p        981.97u    981.07u    ??         0.018027   1.        
 0.005      1.         1.         0.010816   0.011754   1.p        989.18u    988.25u    ??         0.010816   1.        
 0.0055     1.         1.         0.0064898  0.0074484  1.p        993.51u    992.55u    ??         0.0064898  1.        
 0.006      1.         1.         0.0038939  0.0048666  1.p        996.11u    995.13u    ??         0.0038939  1.        
 0.0065     1.         1.         0.0023363  0.0033183  1.p        997.66u    996.68u    ??         0.0023363  1.        
 0.007      1.         1.         0.0014018  0.0023898  1.p        998.6u     997.61u    ??         0.0014018  1.        
 0.0075     1.         1.         841.08u    0.0018331  1.p        999.16u    998.17u    ??         841.08u    1.        
 0.008      1.         1.         504.65u    0.0014992  1.p        999.5u     998.5u     ??         504.65u    1.        
 0.0085     1.         1.         302.79u    0.0012989  1.p        999.7u     998.7u     ??         302.79u    1.        
 0.009      1.         1.         181.67u    0.0011789  1.p        999.82u    998.82u    ??         181.67u    1.        
 0.0095     1.         1.         109.u      0.0011069  1.p        999.89u    998.89u    ??         109.u      1.        
 0.01       1.         1.         65.402u    0.0010637  1.p        999.93u    998.94u    ??         65.402u    1.        
Gnucap   System status
iterations: op=0, dc=0, tran=148, fourier=0, total=187
transient timesteps: accepted=38, rejected=1, total=39
nodes: user=4, subckt=0, model=1, total=5
dctran density=68.0%, ac density=68.0%
