.model mycoil subcoil ( r0=NA( 10.K))
lm ( nm 0 ) mycoil
V1 ( n1 0 ) pulse iv= 0. pv= 1. delay= 0. rise= 0.001 fall=NA( 0.) width=NA( Inf) period=NA( Inf)
Ra ( n1 na )  1.K
Rb ( n1 nb )  1.K
Rm ( n1 nm )  1.K
* builtin coil for comparison 
Lb ( nb 0 )  1.
#Time       v(n1)      v(na)      v(nb)      v(nm)      v(p1)      i(Ra)      i(Rb)      i(Rm)      v(lm)      v(Lb)      inductance(Lb)
 0.         0.         0.         0.         0.         0.         0.         0.         0.         ??         0.         1.        
 500.u      0.5        0.5        0.39366    0.39368    0.39357    500.f      106.34u    106.32u    ??         0.39366    1.        
 0.001      1.         1.         0.63266    0.63277    0.6324     1.p        367.34u    367.23u    ??         0.63266    1.        
 0.0015     1.         1.         0.38272    0.38299    0.38237    1.p        617.28u    617.01u    ??         0.38272    1.        
 0.002      1.         1.         0.23152    0.23196    0.23119    1.p        768.48u    768.04u    ??         0.23152    1.        
 0.0025     1.         1.         0.13891    0.1395     0.13864    1.p        861.09u    860.5u     ??         0.13891    1.        
 0.003      1.         1.         0.083348   0.084056   0.08314    1.p        916.65u    915.94u    ??         0.083348   1.        
 0.0035     1.         1.         0.050009   0.050807   0.049858   1.p        949.99u    949.19u    ??         0.050009   1.        
 0.004      1.         1.         0.030005   0.030868   0.029899   1.p        969.99u    969.13u    ??         0.030005   1.        
 0.0045     1.         1.         0.018003   0.018911   0.01793    1.p        982.u      981.09u    ??         0.018003   1.        
 0.005      1.         1.         0.010802   0.01174    0.010752   1.p        989.2u     988.26u    ??         0.010802   1.        
 0.0055     1.         1.         0.0064812  0.0074403  0.0064478  1.p        993.52u    992.56u    ??         0.0064812  1.        
 0.006      1.         1.         0.0038887  0.0048617  0.0038666  1.p        996.11u    995.14u    ??         0.0038887  1.        
 0.0065     1.         1.         0.0023332  0.0033154  0.0023187  1.p        997.67u    996.68u    ??         0.0023332  1.        
 0.007      1.         1.         0.0013999  0.0023881  0.0013905  1.p        998.6u     997.61u    ??         0.0013999  1.        
 0.0075     1.         1.         839.96u    0.001832   833.85u    1.p        999.16u    998.17u    ??         839.96u    1.        
 0.008      1.         1.         503.98u    0.0014985  500.04u    1.p        999.5u     998.5u     ??         503.98u    1.        
 0.0085     1.         1.         302.39u    0.0012986  299.87u    1.p        999.7u     998.7u     ??         302.39u    1.        
 0.009      1.         1.         181.43u    0.0011786  179.82u    1.p        999.82u    998.82u    ??         181.43u    1.        
 0.0095     1.         1.         108.86u    0.0011067  107.84u    1.p        999.89u    998.89u    ??         108.86u    1.        
 0.01       1.         1.         65.315u    0.0010636  64.668u    1.p        999.93u    998.94u    ??         65.315u    1.        
Gnucap   System status
iterations: op=0, dc=0, tran=152, fourier=0, total=192
transient timesteps: accepted=38, rejected=2, total=40
nodes: user=4, subckt=0, model=1, total=5
dctran density=68.0%, ac density=68.0%
