.model mycoil subcoil ( r0=NA( 10.K))
lm ( nm 0 )  mycoil 
V1 ( n1 0 ) pulse iv= 0. pv= 1. delay= 0. rise= 0.001 fall=NA( 0.) width=NA( Inf) period=NA( Inf)
Ra ( n1 na )  1.K
Rb ( n1 nb )  1.K
Rm ( n1 nm )  1.K
* builtin coil for comparison 
Lb ( nb 0 )  1.
#Time       v(n1)      v(na)      v(nb)      v(nm)      i(Ra)      i(Rb)      i(Rm)      v(lm)      v(Lb)      inductance(Lb)
 0.         0.         0.         0.         0.         0.         0.         0.         ??         0.         1.        
 500.u      0.5        0.5        0.39371    0.39371    500.f      106.29u    106.29u    ??         0.39371    1.        
 0.001      1.         1.         0.63269    0.63269    1.p        367.31u    367.31u    ??         0.63269    1.        
 0.0015     1.         1.         0.38323    0.38323    1.p        616.77u    616.77u    ??         0.38323    1.        
 0.002      1.         1.         0.23183    0.23183    1.p        768.17u    768.17u    ??         0.23183    1.        
 0.0025     1.         1.         0.1391     0.1391     1.p        860.9u     860.9u     ??         0.1391     1.        
 0.003      1.         1.         0.083459   0.083459   1.p        916.54u    916.54u    ??         0.083459   1.        
 0.0035     1.         1.         0.050075   0.050075   1.p        949.92u    949.92u    ??         0.050075   1.        
 0.004      1.         1.         0.030045   0.030045   1.p        969.95u    969.95u    ??         0.030045   1.        
 0.0045     1.         1.         0.018027   0.018027   1.p        981.97u    981.97u    ??         0.018027   1.        
 0.005      1.         1.         0.010816   0.010816   1.p        989.18u    989.18u    ??         0.010816   1.        
 0.0055     1.         1.         0.0064898  0.0064898  1.p        993.51u    993.51u    ??         0.0064898  1.        
 0.006      1.         1.         0.0038939  0.0038939  1.p        996.11u    996.11u    ??         0.0038939  1.        
 0.0065     1.         1.         0.0023363  0.0023363  1.p        997.66u    997.66u    ??         0.0023363  1.        
 0.007      1.         1.         0.0014018  0.0014018  1.p        998.6u     998.6u     ??         0.0014018  1.        
 0.0075     1.         1.         841.08u    0.0023363  1.p        999.16u    997.66u    ??         841.08u    1.        
 0.008      1.         1.         504.65u   -93.453u    1.p        999.5u     0.0010001  ??         504.65u    1.        
 0.0085     1.         1.         302.79u   -56.072u    1.p        999.7u     0.0010001  ??         302.79u    1.        
 0.009      1.         1.         181.67u   -93.453u    1.p        999.82u    0.0010001  ??         181.67u    1.        
 0.0095     1.         1.         109.u      3.7381u    1.p        999.89u    0.001      ??         109.u      1.        
 0.01       1.         1.         65.402u   -153.26u    1.p        999.93u    0.0010002  ??         65.402u    1.        
Gnucap   System status
iterations: op=0, dc=0, tran=148, fourier=0, total=187
transient timesteps: accepted=38, rejected=1, total=39
nodes: user=4, subckt=0, model=0, total=4
dctran density=62.5%, ac density=62.5%
