#Time     v(n1)    v(nb)    v(nv)   
 0.       0.       0.       0.      
 0.1      0.219    0.219    1.      
 0.2      0.392    0.392    1.      
 0.3      0.527    0.527    1.      
 0.4      0.632    0.632    1.      
 0.5      0.714    0.714    1.      
 0.6      0.778    0.778    1.      
 0.7      0.827    0.827    1.      
 0.8      0.865    0.865    1.      
 0.9      0.895    0.895    1.      
 1.       0.919    0.919    1.      
#Time     v(n1)    v(nb)    v(nv)   
 1.       0.919    0.919    1.      
 1.1      0.937    0.937    1.      
 1.2      0.951    0.951    1.      
 1.3      0.962    0.962    1.      
 1.4      0.97     0.97     1.      
 1.5      0.977    0.977    1.      
 1.6      0.761    0.761    152.E-6 
 1.7      0.592    0.592    118.E-6 
 1.8      0.46     0.46     92.E-6  
 1.9      0.358    0.358    71.6E-6 
 2.       0.278    0.278    55.7E-6 
