#Time       v(n1)      v(nb)      v(nv)     
 0.         0.         0.         0.        
 0.1        0.21834    0.21834    0.99984   
 0.2        0.39201    0.39201    0.99988   
 0.3        0.5271     0.5271     0.99991   
 0.4        0.63217    0.63217    0.99993   
 0.5        0.71389    0.71389    0.99994   
 0.6        0.77746    0.77746    0.99996   
 0.7        0.82691    0.82691    0.99997   
 0.8        0.86536    0.86536    0.99997   
 0.9        0.89528    0.89528    0.99998   
 1.         0.91855    0.91855    0.99998   
#Time       v(n1)      v(nb)      v(nv)     
 1.         0.91855    0.91855    0.99998   
 1.1        0.93664    0.93664    0.99999   
 1.2        0.95072    0.95072    0.99999   
 1.3        0.96167    0.96167    0.99999   
 1.4        0.97018    0.97018    0.99999   
 1.5        0.97681    0.97681    1.        
 1.6        0.76064    0.76064    152.1E-6  
 1.7        0.59164    0.59164    118.3E-6  
 1.8        0.46019    0.46019    92.02E-6  
 1.9        0.35794    0.35794    71.574E-6 
 2.         0.27841    0.27841    55.672E-6 

#Time       v(n1)      v(nb)      v(nv)     
//BUG// restore time mismatch.  t0=1.900000000000, s->t=1.000000000000
//BUG// c1.v_p_n restore time mismatch.  t0=1.900000000000, s->t=1.000000000000
//BUG// v1 restore time mismatch.  t0=1.900000000000, s->t=1.000000000000
//BUG// r1 restore time mismatch.  t0=1.900000000000, s->t=1.000000000000
//BUG// rb restore time mismatch.  t0=1.900000000000, s->t=1.000000000000
//BUG// cb restore time mismatch.  t0=1.900000000000, s->t=1.000000000000
... assertion should fail here
