name   ...
have 3 nodes. model: 1 sckt: 0

nin      nin matrix_number 2, user_number 2 nm[t]  vdc 
nout     nout matrix_number 3, user_number 1 nm[t]  vdc 
-e1
e1.v_p_n.br e1.v_p_n.br matrix_number 3, user_number 1 nm[t]  vdc 
#           v(nin)     v(nout)    i(r1)     
 0.         0.         0.         0.        
-1.         1.         12.        12.       
-2.         1.         12.        12.       
 0.         1.         12.        12.       
#Time       v(nin)     v(nout)    i(r1)     
 0.         0.         10.        10.       
 0.001      0.0062831  10.013     10.013    
 0.002      0.012566   10.025     10.025    
 0.0036333  0.022827   10.046     10.046    
 0.035756   0.22277    10.446     10.446    
 0.067878   0.41368    10.827     10.827    
 0.1        0.58779    11.176     11.176    
 0.15       0.80902    11.618     11.618    
 0.2        0.95106    11.902     11.902    
 0.3        0.95106    11.902     11.902    
 0.4        0.58779    11.176     11.176    
 0.5        0.         10.        10.       
 0.6       -0.58779    8.8244     8.8244    
 0.7       -0.95106    8.0979     8.0979    
 0.8       -0.95106    8.0979     8.0979    
 0.9       -0.58779    8.8244     8.8244    
 1.         0.         10.        10.       
