name   ...
have 2 nodes. model: 1 sckt: 0 adp 0

ndd      ndd matrix_number 2, user_number 1 nm[t]  vdc  0.
-H1
t1    H1.t1 matrix_number 1, user_number 2 nm[t]  vdc  0.
#           v(ndd)     temp(H1)   v(H1.t1)   reff(H1)   P_el(H1)   P_rad(H1)  P_thc(H1)  ambient(H1) state0(H1)
 0.         0.         0.         0.         0.         0.         0.         0.         0.         0.        
-1.         0.         273.15     31.274     45.95      0.        -0.0025494  0.         300.15     0.027315  
-2.         0.         304.42     27.089     50.641     0.         472.21u    0.         300.15     0.030442  
-3.         0.         300.24     27.        50.013     0.         9.6473u    0.         300.15     0.030024  
-4.         0.         300.15     27.        50.        0.         4.3212n    0.         300.15     0.030015  
 0.         0.         300.15     27.        50.        0.         27.001p    0.         300.15     0.030015  
#Time       v(ndd)     temp(H1)   v(H1.t1)   reff(H1)   P_el(H1)   P_rad(H1)  P_thc(H1)  ambient(H1) state0(H1)
 0.         0.         300.15     27.        50.        0.         27.001p    0.         300.15     0.030015  
 0.1        230.       3.2255K    2.9524K    488.81     108.22     108.24     0.         300.15     0.32255   
 0.2        230.       3.2254K    2.9522K    488.78     108.23     108.21     0.         300.15     0.32254   
 0.3        230.       3.2255K    2.9524K    488.81     108.22     108.24     0.         300.15     0.32255   
 0.4        230.       3.2254K    2.9522K    488.78     108.23     108.21     0.         300.15     0.32254   
 0.5        230.       3.2255K    2.9524K    488.81     108.22     108.24     0.         300.15     0.32255   
 0.6        230.       3.2254K    2.9522K    488.78     108.23     108.22     0.         300.15     0.32254   
 0.7        230.       3.2255K    2.9524K    488.81     108.22     108.24     0.         300.15     0.32255   
 0.8        230.       3.2254K    2.9522K    488.78     108.23     108.22     0.         300.15     0.32254   
 0.9        230.       3.2255K    2.9524K    488.81     108.22     108.23     0.         300.15     0.32255   
 1.         230.       3.2254K    2.9522K    488.78     108.23     108.22     0.         300.15     0.32254   
t1= 3.225528K
#Time       v(ndd)     temp(H1)   v(H1.t1)   reff(H1)   P_el(H1)   P_rad(H1)  P_thc(H1)  ambient(H1) state0(H1)
 1.         230.       3.2254K    2.9522K    488.78     108.23     108.22     0.         300.15     0.32254   
 1.1        0.         706.21     433.06     110.91     0.         0.24062    0.         300.15     0.070621  
 1.2        0.         560.01     286.86     88.979     0.         0.090237   0.         300.15     0.056001  
 1.3        0.         492.03     218.88     78.782     0.         0.050494   0.         300.15     0.049203  
 1.4        0.         450.29     177.14     72.521     0.         0.032995   0.         300.15     0.045029  
 1.5        0.         421.99     148.84     68.276     0.         0.023595   0.         300.15     0.042199  
 1.6        0.         401.29     128.14     65.171     0.         0.017815   0.         300.15     0.040129  
 1.7        0.         385.41     112.26     62.788     0.         0.013947   0.         300.15     0.038541  
 1.8        0.         372.83     99.68      60.902     0.         0.011205   0.         300.15     0.037283  
 1.9        0.         362.64     89.488     59.373     0.         0.0091777  0.         300.15     0.036264  
 2.         0.         354.23     81.085     58.113     0.         0.0076296  0.         300.15     0.035423  
t2= 421.9923
Gnucap   System status
iterations: op=0, dc=5, tran=136, fourier=0, total=315
transient timesteps: accepted=58, rejected=2, total=60
nodes: user=1, subckt=0, model=1, total=2
dctran density=100.0%, ac density=100.0%
