name   ...
have 2 nodes. model: 1 sckt: 0 adp 0

ndd      ndd matrix_number 2, user_number 1 nm[t]  vdc  0.
-H1
t1    H1.t1 matrix_number 1, user_number 2 nm[t]  vdc  0.
#           v(ndd)     temp(H1)   v(H1.t1)   reff(H1)   P_el(H1)   P_rad(H1)  P_thc(H1)  ambient(H1) state0(H1)
 0.         0.         0.         0.         0.         0.         0.         0.         0.         0.        
-1.         0.         273.15     31.274     45.95      0.        -0.0025494  0.         300.15     0.027315  
-2.         0.         304.42     27.089     50.641     0.         472.21u    0.         300.15     0.030442  
-3.         0.         300.24     27.        50.013     0.         9.6473u    0.         300.15     0.030024  
-4.         0.         300.15     27.        50.        0.         4.3212n    0.         300.15     0.030015  
 0.         0.         300.15     27.        50.        0.         27.001p    0.         300.15     0.030015  
#Time       v(ndd)     temp(H1)   v(H1.t1)   reff(H1)   P_el(H1)   P_rad(H1)  P_thc(H1)  ambient(H1) state0(H1)
 0.         0.         300.15     27.        50.        0.         27.001p    0.         300.15     0.030015  
 0.1        230.       3.2252K    2.9521K    488.76     108.23     108.19     0.         300.15     0.32252   
 0.2        230.       3.2257K    2.9525K    488.83     108.22     108.26     0.         300.15     0.32257   
 0.3        230.       3.2252K    2.9521K    488.76     108.23     108.19     0.         300.15     0.32252   
 0.4        230.       3.2257K    2.9525K    488.83     108.22     108.26     0.         300.15     0.32257   
 0.5        230.       3.2252K    2.9521K    488.76     108.23     108.2      0.         300.15     0.32252   
 0.6        230.       3.2257K    2.9525K    488.83     108.22     108.25     0.         300.15     0.32257   
 0.7        230.       3.2252K    2.9521K    488.76     108.23     108.2      0.         300.15     0.32252   
 0.8        230.       3.2257K    2.9525K    488.83     108.22     108.25     0.         300.15     0.32257   
 0.9        230.       3.2253K    2.9521K    488.77     108.23     108.2      0.         300.15     0.32253   
 1.         230.       3.2256K    2.9525K    488.82     108.22     108.25     0.         300.15     0.32256   
t1= 3.22523K
#Time       v(ndd)     temp(H1)   v(H1.t1)   reff(H1)   P_el(H1)   P_rad(H1)  P_thc(H1)  ambient(H1) state0(H1)
 1.         230.       3.2256K    2.9525K    488.82     108.22     108.25     0.         300.15     0.32256   
 1.1        0.         707.1      433.95     111.04     0.         0.24187    0.         300.15     0.07071   
 1.2        0.         560.34     287.19     89.028     0.         0.090466   0.         300.15     0.056034  
 1.3        0.         492.21     219.06     78.809     0.         0.05058    0.         300.15     0.049221  
 1.4        0.         450.4      177.25     72.538     0.         0.033037   0.         300.15     0.04504   
 1.5        0.         422.07     148.92     68.289     0.         0.02362    0.         300.15     0.042207  
 1.6        0.         401.35     128.2      65.18      0.         0.017831   0.         300.15     0.040135  
 1.7        0.         385.45     112.3      62.796     0.         0.013958   0.         300.15     0.038545  
 1.8        0.         372.87     99.719     60.908     0.         0.011213   0.         300.15     0.037287  
 1.9        0.         362.67     89.52      59.378     0.         0.0091838  0.         300.15     0.036267  
 2.         0.         354.26     81.111     58.117     0.         0.0076342  0.         300.15     0.035426  
t2= 3.225645K
