# gnucap-uf 0.0.0-rc10
# Copyright 2009-2013 Felix Salfelder
# Copyright 1982-2009, Albert Davis
# Gnucap comes with ABSOLUTELY NO WARRANTY
# This is free software, and you are welcome
# to redistribute it under the terms of 
# the GNU General Public License, version 3 or later.
# See the file "COPYING" for details.
* this file is part of gnucap-adms 
* Copyright (C) 2013 Felix Salfelder 
* License GPLv3 (or later) 
.model myldo ldo ( Vdrop=NA( 0.3) Vddmin=NA( 2.1) Rrs=NA( 5.2K) rdegout=NA( 10.K) Imax=NA( 0.00182) fak2=NA( 4.138) fak1=NA( 1.6) Ibias=NA( 0.0018) C1=NA( 1.n) rout=2 psrr=NA( 300.u))
.subckt ldo101b ( vbg2 nout vrs vdd gnd )
LDO1 ( vbg2 nout vrs vdd gnd )  myldo 
.ends ldo101b
Xldo ( vbg nout vrs ndd 0 )  ldo101b 
Vdd ( ndd 0 )  DC  5.
V2 ( vrs 0 )  DC  1.
Vb ( vbg 0 )  DC  1.4
#           v(ndd)     v(nout)    v(vbg)     v(vrs)    
 0.         5.         4.1389     1.         3.0769n   
 0.5        5.         1.6009     1.         0.5       
 1.         5.         1.6009     1.         1.        
 1.5        5.         1.6009     1.         1.5       
 2.         5.         1.6009     1.         2.        
 2.5        5.         1.6009     1.         2.5       
 3.         5.         1.6009     1.         3.        
 3.5        5.         1.6009     1.         3.5       
 4.         5.         1.6009     1.         4.        
 4.5        5.         1.6009     1.         4.5       
 5.         5.         1.6009     1.         5.        
 0.         5.         4.5527     1.1        3.3846n   
 0.5        5.         1.7609     1.1        0.5       
 1.         5.         1.7609     1.1        1.        
 1.5        5.         1.7609     1.1        1.5       
 2.         5.         1.7609     1.1        2.        
 2.5        5.         1.7609     1.1        2.5       
 3.         5.         1.7609     1.1        3.        
 3.5        5.         1.7609     1.1        3.5       
 4.         5.         1.7609     1.1        4.        
 4.5        5.         1.7609     1.1        4.5       
 5.         5.         1.7609     1.1        5.        
 0.         5.         4.9665     1.2        3.6923n   
 0.5        5.         1.9209     1.2        0.5       
 1.         5.         1.9209     1.2        1.        
 1.5        5.         1.9209     1.2        1.5       
 2.         5.         1.9209     1.2        2.        
 2.5        5.         1.9209     1.2        2.5       
 3.         5.         1.9209     1.2        3.        
 3.5        5.         1.9209     1.2        3.5       
 4.         5.         1.9209     1.2        4.        
 4.5        5.         1.9209     1.2        4.5       
 5.         5.         1.9209     1.2        5.        
 0.         5.         5.3803     1.3        4.n       
 0.5        5.         2.0809     1.3        0.5       
 1.         5.         2.0809     1.3        1.        
 1.5        5.         2.0809     1.3        1.5       
 2.         5.         2.0809     1.3        2.        
 2.5        5.         2.0809     1.3        2.5       
 3.         5.         2.0809     1.3        3.        
 3.5        5.         2.0809     1.3        3.5       
 4.         5.         2.0809     1.3        4.        
 4.5        5.         2.0809     1.3        4.5       
 5.         5.         2.0809     1.3        5.        
 0.         5.         5.7941     1.4        4.3077n   
 0.5        5.         2.2409     1.4        0.5       
 1.         5.         2.2409     1.4        1.        
 1.5        5.         2.2409     1.4        1.5       
 2.         5.         2.2409     1.4        2.        
 2.5        5.         2.2409     1.4        2.5       
 3.         5.         2.2409     1.4        3.        
 3.5        5.         2.2409     1.4        3.5       
 4.         5.         2.2409     1.4        4.        
 4.5        5.         2.2409     1.4        4.5       
 5.         5.         2.2409     1.4        5.        
 0.         5.         6.2079     1.5        4.6154n   
 0.5        5.         2.4009     1.5        0.5       
 1.         5.         2.4009     1.5        1.        
 1.5        5.         2.4009     1.5        1.5       
 2.         5.         2.4009     1.5        2.        
 2.5        5.         2.4009     1.5        2.5       
 3.         5.         2.4009     1.5        3.        
 3.5        5.         2.4009     1.5        3.5       
 4.         5.         2.4009     1.5        4.        
 4.5        5.         2.4009     1.5        4.5       
 5.         5.         2.4009     1.5        5.        
 0.         5.         6.6217     1.6        4.9231n   
 0.5        5.         2.5609     1.6        0.5       
 1.         5.         2.5609     1.6        1.        
 1.5        5.         2.5609     1.6        1.5       
 2.         5.         2.5609     1.6        2.        
 2.5        5.         2.5609     1.6        2.5       
 3.         5.         2.5609     1.6        3.        
 3.5        5.         2.5609     1.6        3.5       
 4.         5.         2.5609     1.6        4.        
 4.5        5.         2.5609     1.6        4.5       
 5.         5.         2.5609     1.6        5.        
 0.         5.         7.0355     1.7        5.2308n   
 0.5        5.         2.7209     1.7        0.5       
 1.         5.         2.7209     1.7        1.        
 1.5        5.         2.7209     1.7        1.5       
 2.         5.         2.7209     1.7        2.        
 2.5        5.         2.7209     1.7        2.5       
 3.         5.         2.7209     1.7        3.        
 3.5        5.         2.7209     1.7        3.5       
 4.         5.         2.7209     1.7        4.        
 4.5        5.         2.7209     1.7        4.5       
 5.         5.         2.7209     1.7        5.        
 0.         5.         7.4493     1.8        5.5385n   
 0.5        5.         2.8809     1.8        0.5       
 1.         5.         2.8809     1.8        1.        
 1.5        5.         2.8809     1.8        1.5       
 2.         5.         2.8809     1.8        2.        
 2.5        5.         2.8809     1.8        2.5       
 3.         5.         2.8809     1.8        3.        
 3.5        5.         2.8809     1.8        3.5       
 4.         5.         2.8809     1.8        4.        
 4.5        5.         2.8809     1.8        4.5       
 5.         5.         2.8809     1.8        5.        
 0.         5.         7.8631     1.9        5.8462n   
 0.5        5.         3.0409     1.9        0.5       
 1.         5.         3.0409     1.9        1.        
 1.5        5.         3.0409     1.9        1.5       
 2.         5.         3.0409     1.9        2.        
 2.5        5.         3.0409     1.9        2.5       
 3.         5.         3.0409     1.9        3.        
 3.5        5.         3.0409     1.9        3.5       
 4.         5.         3.0409     1.9        4.        
 4.5        5.         3.0409     1.9        4.5       
 5.         5.         3.0409     1.9        5.        
 0.         5.         8.2769     2.         6.1538n   
 0.5        5.         3.2009     2.         0.5       
 1.         5.         3.2009     2.         1.        
 1.5        5.         3.2009     2.         1.5       
 2.         5.         3.2009     2.         2.        
 2.5        5.         3.2009     2.         2.5       
 3.         5.         3.2009     2.         3.        
 3.5        5.         3.2009     2.         3.5       
 4.         5.         3.2009     2.         4.        
 4.5        5.         3.2009     2.         4.5       
 5.         5.         3.2009     2.         5.        
