#           v(ndd)     omega(M1)  v(M1.p2)   v(M1.t1)   reff(M1)   P_el(M1)   P_rad(M1)  P_rot(M1)  v(nsens)   state0(M1)
 0.         0.         0.         0.         0.         0.         0.         ??         0.         0.         0.        
#Time       v(ndd)     I(M1)      I(R1)      omega(M1)  v(nsens)   P_fric(M1) state0(M1) v(nsens)   hidden(0)  method(M1.l1)
 0.         0.         0.         0.         0.         0.         0.         0.         0.         1.        -1.        
 0.05       0.5        0.         0.05       3.7217     0.0074435  0.037217   372.17u    0.0074435  16.        2.        
 0.1        1.         0.         0.1        8.2644     0.016529   0.082644   826.44u    0.016529   3.         2.        
 0.15       1.         0.         0.1        9.0876     0.018175   0.090876   908.76u    0.018175   19.        2.        
 0.2        1.         0.         0.1        9.0908     0.018182   0.090908   909.08u    0.018182   16.        2.        
 0.25       1.         0.         0.1        9.0908     0.018182   0.090908   909.08u    0.018182   16.        2.        
 0.3        1.         0.         0.1        9.0908     0.018182   0.090908   909.08u    0.018182   61.        2.        
 0.35       1.         0.         0.1        9.0908     0.018182   0.090908   909.08u    0.018182   5.         2.        
 0.4        1.         0.         0.1        9.0908     0.018182   0.090908   909.08u    0.018182   3.         2.        
 0.45       1.         0.         0.1        9.0908     0.018182   0.090908   909.08u    0.018182   1.         2.        
 0.5        1.         0.         0.1        9.0908     0.018182   0.090908   909.08u    0.018182   1.         2.        
 0.55       1.         0.         0.1        9.0908     0.018182   0.090908   909.08u    0.018182   1.         2.        
 0.6        1.         0.         0.1        9.0908     0.018182   0.090908   909.08u    0.018182   1.         2.        
 0.65       1.         0.         0.1        9.0908     0.018182   0.090908   909.08u    0.018182   1.         2.        
 0.7        1.         0.         0.1        9.0908     0.018182   0.090908   909.08u    0.018182   1.         2.        
 0.75       1.         0.         0.1        9.0908     0.018182   0.090908   909.08u    0.018182   1.         2.        
 0.8        1.         0.         0.1        9.0908     0.018182   0.090908   909.08u    0.018182   1.         2.        
 0.85       1.         0.         0.1        9.0908     0.018182   0.090908   909.08u    0.018182   1.         2.        
 0.9        1.         0.         0.1        9.0908     0.018182   0.090908   909.08u    0.018182   1.         2.        
 0.95       1.         0.         0.1        9.0908     0.018182   0.090908   909.08u    0.018182   1.         2.        
 1.         1.         0.         0.1        9.0908     0.018182   0.090908   909.08u    0.018182   1.         2.        
t1= 9.090809
#Time       v(ndd)     I(M1)      I(R1)      omega(M1)  v(nsens)   P_fric(M1) state0(M1) v(nsens)   hidden(0)  method(M1.l1)
 1.         1.         0.         0.1        9.0908     0.018182   0.090908   909.08u    0.018182   1.         2.        
 1.05       0.9        0.         0.09       8.3464     0.016693   0.083464   834.64u    0.016693   13.        2.        
 1.1        0.8        0.         0.08       7.4379     0.014876   0.074379   743.79u    0.014876   3.         2.        
 1.15       0.7        0.         0.07       6.5289     0.013058   0.065289   652.89u    0.013058   2.         2.        
 1.2        0.6        0.         0.06       5.6198     0.011239   0.056198   561.98u    0.011239   1.         2.        
 1.25       0.5        0.         0.05       4.7107     0.0094209  0.047107   471.07u    0.0094209  1.         2.        
 1.3        0.4        0.         0.04       3.8016     0.0076028  0.038016   380.16u    0.0076028  1.         2.        
 1.35       0.3        0.         0.03       2.8925     0.0057851  0.028925   289.25u    0.0057851  1.         2.        
 1.4        0.2        0.         0.02       1.9834     0.0039669  0.019834   198.34u    0.0039669  1.         2.        
 1.45       0.1        0.         0.01       1.0744     0.0021488  0.010744   107.44u    0.0021488  1.         2.        
 1.5       -203.f      0.         20.161n    0.16529    330.57u    0.0016529  16.529u    330.57u    1.         2.        
 1.55      -0.1        0.        -0.01      -0.74379   -0.0014875 -0.0074379 -74.379u   -0.0014875  1.         2.        
 1.6       -0.2        0.        -0.02      -1.6529    -0.0033057 -0.016529  -165.29u   -0.0033057  1.         2.        
 1.65      -0.3        0.        -0.03      -2.562     -0.0051239 -0.02562   -256.2u    -0.0051239  1.         2.        
 1.7       -0.4        0.        -0.04      -3.471     -0.006942  -0.03471   -347.1u    -0.006942   1.         2.        
 1.75      -0.5        0.        -0.05      -4.3801    -0.0087607 -0.043801  -438.01u   -0.0087607  1.         2.        
 1.8       -0.6        0.        -0.06      -5.2892    -0.010579  -0.052892  -528.92u   -0.010579   1.         2.        
 1.85      -0.7        0.        -0.07      -6.1983    -0.012397  -0.061983  -619.83u   -0.012397   1.         2.        
 1.9       -0.8        0.        -0.08      -7.1073    -0.014215  -0.071073  -710.73u   -0.014215   1.         2.        
 1.95      -0.9        0.        -0.09      -8.0164    -0.016033  -0.080164  -801.64u   -0.016033   1.         2.        
 2.        -1.         0.        -0.1       -8.9255    -0.017852  -0.089255  -892.55u   -0.017852   1.         2.        
t2= 0.1652883
s2= 330.5741u
