#           v(ndd)     omega(M1)  v(M1.t1)   reff(M1)   P_el(M1)   P_rad(M1)  P_rot(M1)  v(nsens)   state0(M1)
 0.         0.         0.         0.         0.         0.         ??         0.         0.         0.        
-1.         0.1        0.         90.09      0.         0.         ??         0.        -1.8018u    0.        
-2.         0.1        90.09      90.09     -4.5045K    0.         ??         0.         0.18018    0.09009   
-3.         0.1        90.09      90.09     -4.5045K    0.         ??         0.         0.18018    0.09009   
 0.         0.1        90.09      90.09     -4.5045K    0.         ??         0.         0.18018    0.09009   
#Time       v(ndd)     I(M1)      I(R1)      omega(M1)  v(nsens)   P_fric(M1) state0(M1)
 0.         0.1       -0.009009   0.0090991  90.09      0.18018    0.009009   0.09009   
 0.001      0.149     -0.053514   0.0095486  90.135     0.18027    0.0090135  0.090135  
 0.002      0.198     -0.097999   0.01       90.201     0.1804     0.0090201  0.090201  
 0.003      0.247     -0.14244    0.010456   90.312     0.18062    0.0090312  0.090312  
 0.004      0.296     -0.18685    0.010915   90.468     0.18094    0.0090468  0.090468  
 0.005      0.345     -0.23121    0.011379   90.668     0.18134    0.0090668  0.090668  
 0.0525     2.6725    -2.2931     0.037936   150.05     0.3001     0.015005   0.15005   
 0.1        5.        -4.2684     0.073164   304.8      0.60961    0.03048    0.3048    
 0.15       5.        -4.0805     0.091953   511.48     1.023      0.051148   0.51148   
 0.175      5.        -3.99       0.101      610.96     1.2219     0.061096   0.61096   
 0.2        5.        -3.9019     0.10981    707.96     1.4159     0.070796   0.70796   
 0.25       5.        -3.732      0.1268     894.8      1.7896     0.08948    0.8948    
 0.3        5.        -3.5705     0.14295    1.0724K    2.1449     0.10724    1.0724    
 0.4        5.        -3.2708     0.17292    1.4021K    2.8043     0.14021    1.4021    
 0.5        5.        -2.9999     0.20001    1.7002K    3.4003     0.17002    1.7002    
 0.6        5.        -2.755      0.2245     1.9695K    3.9391     0.19695    1.9695    
 0.7        5.        -2.5336     0.24664    2.2131K    4.4261     0.22131    2.2131    
 0.8        5.        -2.3335     0.26665    2.4332K    4.8664     0.24332    2.4332    
 0.9        5.        -2.1526     0.28474    2.6322K    5.2643     0.26322    2.6322    
 1.         5.        -1.9891     0.30109    2.812K     5.624      0.2812     2.812     
t1= 1.700158K
#Time       v(ndd)     I(M1)      I(R1)      omega(M1)  v(nsens)   P_fric(M1) state0(M1)
 1.         5.        -1.9891     0.30109    2.812K     5.624      0.2812     2.812     
 1.1        4.        -0.97218    0.30278    2.9306K    5.8612     0.29306    2.9306    
 1.2        3.        -0.043654   0.29563    2.952K     5.904      0.2952     2.952     
 1.3        2.         0.80433    0.28043    2.8848K    5.7695     0.28848    2.8848    
 1.4        1.         1.5795     0.25795    2.7375K    5.4749     0.27375    2.7375    
 1.5       -2.2889u    2.2889     0.22889    2.5178K    5.0355     0.25178    2.5178    
 1.6       -1.         2.9388     0.19388    2.2326K    4.4653     0.22326    2.2326    
 1.7       -2.         3.5349     0.15349    1.8883K    3.7767     0.18883    1.8883    
 1.8       -3.         4.0824     0.10824    1.4906K    2.9812     0.14906    1.4906    
 1.9       -4.         4.5859     0.058591   1.0445K    2.089      0.10445    1.0445    
 2.        -5.         5.0497     0.0049746  554.72     1.1094     0.055472   0.55472   
t2= 2.517762K
s2= 5.035524
#Time       v(ndd)     I(M1)      I(R1)      omega(M1)  v(nsens)   P_fric(M1) state0(M1)
 2.        -5.         5.0497     0.0049746  554.72     1.1094     0.055472   0.55472   
 2.1       -4.5        4.1736    -0.032635   91.014     0.18203    0.0091014  0.091014  
 2.2       -4.         3.3768    -0.062321  -285.54    -0.57107   -0.028554  -0.28554   
 2.3       -3.5        2.6521    -0.084786  -582.64    -1.1653    -0.058264  -0.58264   
 2.4       -3.         1.9928    -0.10072   -807.93    -1.6159    -0.080793  -0.80793   
 2.5       -2.5        1.3924    -0.11076   -968.31    -1.9366    -0.096831  -0.96831   
 2.6       -2.         0.84544   -0.11546   -1.07K     -2.14      -0.107     -1.07      
 2.7       -1.5        0.34666   -0.11533   -1.1187K   -2.2374    -0.11187   -1.1187    
 2.8       -1.        -0.10854   -0.11085   -1.1194K   -2.2388    -0.11194   -1.1194    
 2.9       -0.5       -0.52434   -0.10243   -1.0768K   -2.1535    -0.10768   -1.0768    
 3.         904.52n   -0.90452   -0.090452  -994.97    -1.9899    -0.099497  -0.99497   
 3.1        817.63n   -0.81763   -0.081763  -899.39    -1.7988    -0.089939  -0.89939   
 3.2        739.08n   -0.73908   -0.073908  -812.99    -1.626     -0.081299  -0.81299   
 3.3        668.09n   -0.66809   -0.066809  -734.89    -1.4698    -0.073489  -0.73489   
 3.4        603.91n   -0.60391   -0.060391  -664.3     -1.3286    -0.06643   -0.6643    
 3.5        545.89n   -0.5459    -0.054589  -600.48    -1.201     -0.060048  -0.60048   
 3.6        493.45n   -0.49346   -0.049345  -542.8     -1.0856    -0.05428   -0.5428    
 3.7        446.05n   -0.44605   -0.044605  -490.66    -0.98132   -0.049066  -0.49066   
 3.8        403.2n    -0.4032    -0.04032   -443.52    -0.88705   -0.044352  -0.44352   
 3.9        364.47n   -0.36447   -0.036447  -400.92    -0.80184   -0.040092  -0.40092   
 4.         329.46n   -0.32946   -0.032946  -362.4     -0.72481   -0.03624   -0.3624    
 4.1        297.81n   -0.29781   -0.029781  -327.59    -0.65518   -0.032759  -0.32759   
 4.2        269.2n    -0.2692    -0.02692   -296.12    -0.59224   -0.029612  -0.29612   
 4.3        243.34n   -0.24334   -0.024334  -267.68    -0.53535   -0.026768  -0.26768   
 4.4        219.97n   -0.21997   -0.021997  -241.96    -0.48392   -0.024196  -0.24196   
 4.5        198.84n   -0.19884   -0.019884  -218.72    -0.43744   -0.021872  -0.21872   
 4.6        179.73n   -0.17973   -0.017973  -197.71    -0.39542   -0.019771  -0.19771   
 4.7        162.47n   -0.16247   -0.016247  -178.72    -0.35743   -0.017872  -0.17872   
 4.8        146.86n   -0.14686   -0.014686  -161.55    -0.3231    -0.016155  -0.16155   
 4.9        132.75n   -0.13275   -0.013275  -146.03    -0.29206   -0.014603  -0.14603   
 5.         120.n     -0.12      -0.012     -132.      -0.264     -0.0132    -0.132     
t3=-600.4843
