#           v(ndd)     omega(M1)  v(M1.p2)   v(M1.t1)   reff(M1)   P_el(M1)   P_rad(M1)  P_rot(M1)  v(nsens)   state0(M1)
 0.         0.         0.         0.         0.         0.         0.         ??         0.         0.         0.        
#Time       v(ndd)     I(M1)      I(R1)      omega(M1)  v(nsens)   P_fric(M1) state0(M1) v(nsens)  
 0.         0.         0.         0.         0.         0.         0.         0.         0.        
 0.05       0.5       -0.046274   0.05       3.7256     0.0074512  0.037256   372.56u    0.0074512 
 0.1        1.        -0.091734   0.1        8.2646     0.016529   0.082646   826.46u    0.016529  
 0.15       1.        -0.090913   0.1        9.0862     0.018172   0.090862   908.62u    0.018172  
 0.2        1.        -0.090908   0.1        9.0908     0.018182   0.090908   909.08u    0.018182  
 0.25       1.        -0.090908   0.1        9.0908     0.018182   0.090908   909.08u    0.018182  
 0.3        1.        -0.090908   0.1        9.0908     0.018182   0.090908   909.08u    0.018182  
 0.35       1.        -0.090908   0.1        9.0908     0.018182   0.090908   909.08u    0.018182  
 0.4        1.        -0.090908   0.1        9.0908     0.018182   0.090908   909.08u    0.018182  
 0.45       1.        -0.090908   0.1        9.0908     0.018182   0.090908   909.08u    0.018182  
 0.5        1.        -0.090908   0.1        9.0908     0.018182   0.090908   909.08u    0.018182  
 0.55       1.        -0.090908   0.1        9.0908     0.018182   0.090908   909.08u    0.018182  
 0.6        1.        -0.090908   0.1        9.0908     0.018182   0.090908   909.08u    0.018182  
 0.65       1.        -0.090908   0.1        9.0908     0.018182   0.090908   909.08u    0.018182  
 0.7        1.        -0.090908   0.1        9.0908     0.018182   0.090908   909.08u    0.018182  
 0.75       1.        -0.090908   0.1        9.0908     0.018182   0.090908   909.08u    0.018182  
 0.8        1.        -0.090908   0.1        9.0908     0.018182   0.090908   909.08u    0.018182  
 0.85       1.        -0.090908   0.1        9.0908     0.018182   0.090908   909.08u    0.018182  
 0.9        1.        -0.090908   0.1        9.0908     0.018182   0.090908   909.08u    0.018182  
 0.95       1.        -0.090908   0.1        9.0908     0.018182   0.090908   909.08u    0.018182  
 1.         1.        -0.090908   0.1        9.0908     0.018182   0.090908   909.08u    0.018182  
t1= 9.090809
#Time       v(ndd)     I(M1)      I(R1)      omega(M1)  v(nsens)   P_fric(M1) state0(M1) v(nsens)  
 1.         1.        -0.090908   0.1        9.0908     0.018182   0.090908   909.08u    0.018182  
 1.05       0.9       -0.081653   0.09       8.3457     0.016691   0.083457   834.57u    0.016691  
 1.1        0.8       -0.072561   0.08       7.4379     0.014876   0.074379   743.79u    0.014876  
 1.15       0.7       -0.06347    0.07       6.5289     0.013057   0.065289   652.89u    0.013057  
 1.2        0.6       -0.05438    0.06       5.6198     0.01124    0.056198   561.98u    0.01124   
 1.25       0.5       -0.045289   0.05       4.7107     0.0094215  0.047107   471.07u    0.0094215 
 1.3        0.4       -0.036198   0.04       3.8016     0.0076033  0.038016   380.16u    0.0076033 
 1.35       0.3       -0.027107   0.03       2.8925     0.0057851  0.028925   289.25u    0.0057851 
 1.4        0.2       -0.018016   0.02       1.9834     0.003967   0.019834   198.34u    0.003967  
 1.45       0.1       -0.0089255  0.01       1.0744     0.0021488  0.010744   107.44u    0.0021488 
 1.5       -203.f      165.27u    20.165n    0.16529    330.57u    0.0016529  16.529u    330.57u   
 1.55      -0.1        0.0092561 -0.01      -0.74379   -0.0014875 -0.0074379 -74.379u   -0.0014875 
 1.6       -0.2        0.018347  -0.02      -1.6529    -0.0033057 -0.016529  -165.29u   -0.0033057 
 1.65      -0.3        0.027438  -0.03      -2.562     -0.0051238 -0.02562   -256.2u    -0.0051238 
 1.7       -0.4        0.036529  -0.04      -3.471     -0.006942  -0.03471   -347.1u    -0.006942  
 1.75      -0.5        0.045619  -0.05      -4.3801    -0.0087602 -0.043801  -438.01u   -0.0087602 
 1.8       -0.6        0.05471   -0.06      -5.2892    -0.010578  -0.052892  -528.92u   -0.010578  
 1.85      -0.7        0.063801  -0.07      -6.1982    -0.012397  -0.061982  -619.82u   -0.012397  
 1.9       -0.8        0.072892  -0.08      -7.1073    -0.014216  -0.071073  -710.73u   -0.014216  
 1.95      -0.9        0.081983  -0.09      -8.0164    -0.016034  -0.080164  -801.64u   -0.016034  
 2.        -1.         0.091073  -0.1       -8.9255    -0.017852  -0.089255  -892.55u   -0.017852  
t2= 0.1652891
s2= 330.5716u
