#           v(ndd)     omega(M1)  v(M1.p2)   v(M1.t1)   reff(M1)   P_el(M1)   P_rad(M1)  P_rot(M1)  v(nsens)   state0(M1)
 0.         0.         0.         0.         0.         0.         0.         ??         0.         0.         0.        
#Time       v(ndd)     I(M1)      I(R1)      omega(M1)  v(nsens)   P_fric(M1) state0(M1) v(nsens)  
 0.         0.         0.         0.         0.         0.         0.         0.         0.        
 495.63n    4.9563u   -412.41n    412.41n    2.0439n    4.088p     20.439p    204.39f    4.088p    
 784.39n    7.8439u   -688.7n     688.71n    4.0325n    8.065p     40.325p    403.25f    8.065p    
 1.0732u    10.732u   -974.26n    974.27n    6.8457n    13.691p    68.457p    684.57f    13.691p   
 1.3619u    13.619u   -1.2622u    1.2622u    10.49n     20.98p     104.9p     1.049p     20.98p    
 1.6507u    16.507u   -1.5507u    1.5508u    14.968n    29.936p    149.68p    1.4968p    29.936p   
 1.9395u    19.395u   -1.8394u    1.8395u    20.279n    40.558p    202.79p    2.0279p    40.558p   
 2.2282u    22.282u   -2.1282u    2.1282u    26.424n    52.848p    264.24p    2.6424p    52.848p   
 2.517u     25.17u    -2.4169u    2.417u     33.402n    66.804p    334.02p    3.3402p    66.804p   
 2.8058u    28.058u   -2.7057u    2.7058u    41.214n    82.429p    412.14p    4.1214p    82.429p   
 3.0945u    30.945u   -2.9945u    2.9945u    49.86n     99.72p     498.6p     4.986p     99.72p    
 3.3833u    33.833u   -3.2832u    3.2833u    59.339n    118.68p    593.39p    5.9339p    118.68p   
 3.6721u    36.721u   -3.572u     3.5721u    69.652n    139.3p     696.52p    6.9652p    139.3p    
 3.9609u    39.608u   -3.8607u    3.8608u    80.798n    161.6p     807.98p    8.0798p    161.6p    
 4.2496u    42.496u   -4.1495u    4.1496u    92.778n    185.56p    927.78p    9.2778p    185.56p   
 4.5384u    45.384u   -4.4382u    4.4384u    105.59n    211.18p    1.0559n    10.559p    211.18p   
 4.8272u    48.272u   -4.727u     4.7271u    119.24n    238.47p    1.1924n    11.924p    238.47p   
 5.1159u    51.159u   -5.0157u    5.0159u    133.72n    267.44p    1.3372n    13.372p    267.44p   
 5.4047u    54.047u   -5.3045u    5.3047u    149.03n    298.06p    1.4903n    14.903p    298.06p   
 5.8616u    58.616u   -5.7614u    5.7616u    175.35n    350.69p    1.7535n    17.535p    350.69p   
 6.3185u    63.185u   -6.2182u    6.2185u    203.75n    407.5p     2.0375n    20.375p    407.5p    
 6.7754u    67.754u   -6.6751u    6.6754u    234.24n    468.48p    2.3424n    23.424p    468.48p   
 7.2323u    72.323u   -7.132u     7.1323u    266.81n    533.63p    2.6681n    26.681p    533.63p   
 7.6892u    76.892u   -7.5889u    7.5892u    301.47n    602.95p    3.0147n    30.147p    602.95p   
 8.1462u    81.461u   -8.0457u    8.0461u    338.22n    676.44p    3.3822n    33.822p    676.44p   
 8.8346u    88.346u   -8.7341u    8.7346u    398.32n    796.64p    3.9832n    39.832p    796.64p   
 9.523u     95.23u    -9.4224u    9.423u     463.15n    926.31p    4.6315n    46.315p    926.31p   
 10.211u    102.11u   -10.111u    10.111u    532.72n    1.0654n    5.3272n    53.272p    1.0654n   
 10.9u      109.u     -10.799u    10.8u      607.02n    1.214n     6.0702n    60.702p    1.214n    
 11.588u    115.88u   -11.487u    11.488u    686.06n    1.3721n    6.8606n    68.606p    1.3721n   
 12.277u    122.77u   -12.176u    12.177u    769.83n    1.5397n    7.6983n    76.983p    1.5397n   
 13.316u    133.16u   -13.214u    13.216u    907.01n    1.814n     9.0701n    90.701p    1.814n    
 14.354u    143.54u   -14.253u    14.254u    1.055u     2.1099n    10.55n     105.5p     2.1099n   
 15.393u    153.93u   -15.292u    15.293u    1.2137u    2.4274n    12.137n    121.37p    2.4274n   
 16.432u    164.32u   -16.331u    16.332u    1.3832u    2.7664n    13.832n    138.32p    2.7664n   
 17.471u    174.71u   -17.369u    17.371u    1.5635u    3.127n     15.635n    156.35p    3.127n    
 18.51u     185.1u    -18.408u    18.41u     1.7545u    3.5091n    17.545n    175.45p    3.5091n   
 20.079u    200.79u   -19.976u    19.979u    2.0676u    4.1352n    20.676n    206.76p    4.1352n   
 21.647u    216.47u   -21.545u    21.547u    2.4052u    4.8105n    24.052n    240.52p    4.8105n   
 23.216u    232.16u   -23.113u    23.116u    2.7674u    5.5348n    27.674n    276.74p    5.5348n   
 24.785u    247.85u   -24.682u    24.685u    3.1541u    6.3083n    31.541n    315.41p    6.3083n   
 26.354u    263.54u   -26.25u     26.254u    3.5654u    7.1308n    35.654n    356.54p    7.1308n   
 27.923u    279.23u   -27.819u    27.823u    4.0012u    8.0024n    40.012n    400.12p    8.0024n   
 30.293u    302.93u   -30.188u    30.193u    4.7157u    9.4314n    47.157n    471.57p    9.4314n   
 32.664u    326.64u   -32.558u    32.564u    5.4861u    10.972n    54.861n    548.61p    10.972n   
 35.034u    350.34u   -34.927u    34.934u    6.3126u    12.625n    63.126n    631.26p    12.625n   
 37.405u    374.05u   -37.297u    37.304u    7.1949u    14.39n     71.949n    719.49p    14.39n    
 39.775u    397.75u   -39.666u    39.675u    8.1333u    16.267n    81.333n    813.33p    16.267n   
 42.145u    421.45u   -42.036u    42.045u    9.1275u    18.255n    91.275n    912.75p    18.255n   
 45.728u    457.28u   -45.617u    45.628u    10.758u    21.516n    107.58n    1.0758n    21.516n   
 49.311u    493.11u   -49.198u    49.211u    12.516u    25.033n    125.16n    1.2516n    25.033n   
 52.894u    528.94u   -52.779u    52.794u    14.402u    28.805n    144.02n    1.4402n    28.805n   
 56.477u    564.77u   -56.36u     56.377u    16.416u    32.832n    164.16n    1.6416n    32.832n   
 60.06u     600.6u    -59.941u    59.96u     18.557u    37.114n    185.57n    1.8557n    37.114n   
 63.643u    636.43u   -63.522u    63.543u    20.825u    41.651n    208.25n    2.0825n    41.651n   
 69.062u    690.62u   -68.936u    68.961u    24.547u    49.094n    245.47n    2.4547n    49.094n   
 74.48u     744.8u    -74.35u     74.38u     28.56u     57.121n    285.6n     2.856n     57.121n   
 79.898u    798.98u   -79.764u    79.798u    32.864u    65.729n    328.64n    3.2864n    65.729n   
 85.317u    853.17u   -85.178u    85.217u    37.459u    74.919n    374.59n    3.7459n    74.919n   
 90.735u    907.35u   -90.592u    90.635u    42.345u    84.69n     423.45n    4.2345n    84.69n    
 96.153u    961.53u   -96.005u    96.053u    47.521u    95.042n    475.21n    4.7521n    95.042n   
 104.35u    0.0010435 -104.2u     104.25u    56.019u    112.04n    560.19n    5.6019n    112.04n   
 112.55u    0.0011255 -112.39u    112.45u    65.181u    130.36n    651.81n    6.5181n    130.36n   
 120.75u    0.0012075 -120.58u    120.65u    75.006u    150.01n    750.06n    7.5006n    150.01n   
 128.95u    0.0012895 -128.76u    128.85u    85.494u    170.99n    854.94n    8.5494n    170.99n   
 137.15u    0.0013715 -136.95u    137.05u    96.644u    193.29n    966.44n    9.6644n    193.29n   
 145.35u    0.0014535 -145.14u    145.25u    108.46u    216.91n    1.0846u    10.846n    216.91n   
 157.77u    0.0015777 -157.54u    157.67u    127.86u    255.73n    1.2786u    12.786n    255.73n   
 170.19u    0.0017019 -169.94u    170.09u    148.78u    297.57n    1.4878u    14.878n    297.57n   
 182.61u    0.0018261 -182.34u    182.51u    171.22u    342.44n    1.7122u    17.122n    342.44n   
 195.03u    0.0019503 -194.73u    194.93u    195.16u    390.32n    1.9516u    19.516n    390.32n   
 207.45u    0.0020745 -207.13u    207.35u    220.61u    441.22n    2.2061u    22.061n    441.22n   
 219.87u    0.0021987 -219.52u    219.77u    247.57u    495.14n    2.4757u    24.757n    495.14n   
 238.71u    0.0023871 -238.32u    238.61u    291.92u    583.84n    2.9192u    29.192n    583.84n   
 257.55u    0.0025755 -257.11u    257.45u    339.72u    679.44n    3.3972u    33.972n    679.44n   
 276.39u    0.0027639 -275.9u     276.29u    390.96u    781.93n    3.9096u    39.096n    781.93n   
 295.23u    0.0029523 -294.68u    295.13u    445.64u    891.29n    4.4564u    44.564n    891.29n   
 314.07u    0.0031407 -313.47u    313.97u    503.75u    1.0075u    5.0375u    50.375n    1.0075u   
 332.91u    0.0033291 -332.24u    332.81u    565.29u    1.1306u    5.6529u    56.529n    1.1306u   
 361.56u    0.0036156 -360.79u    361.46u    666.74u    1.3335u    6.6674u    66.674n    1.3335u   
 390.21u    0.0039021 -389.33u    390.11u    776.05u    1.5521u    7.7605u    77.605n    1.5521u   
 418.86u    0.0041886 -417.86u    418.76u    893.2u     1.7864u    8.932u     89.32n     1.7864u   
 447.51u    0.0044751 -446.38u    447.41u    0.0010182  2.0363u    10.182u    101.82n    2.0363u   
 476.15u    0.0047615 -474.9u     476.05u    0.0011509  2.3018u    11.509u    115.09n    2.3018u   
 504.8u     0.005048  -503.41u    504.7u     0.0012914  2.5829u    12.914u    129.14n    2.5829u   
 548.52u    0.0054852 -546.89u    548.42u    0.0015238  3.0477u    15.238u    152.38n    3.0477u   
 592.23u    0.0059223 -590.35u    592.13u    0.0017742  3.5483u    17.742u    177.42n    3.5483u   
 635.95u    0.0063595 -633.8u     635.85u    0.0020423  4.0846u    20.423u    204.23n    4.0846u   
 679.66u    0.0067966 -677.23u    679.56u    0.0023282  4.6563u    23.282u    232.82n    4.6563u   
 723.38u    0.0072338 -720.64u    723.28u    0.0026317  5.2634u    26.317u    263.17n    5.2634u   
 767.09u    0.0076709 -764.03u    766.99u    0.0029528  5.9055u    29.528u    295.28n    5.9055u   
 834.14u    0.0083414 -830.55u    834.04u    0.0034863  6.9725u    34.863u    348.63n    6.9725u   
 901.19u    0.0090119 -897.02u    901.09u    0.0040605  8.121u     40.605u    406.05n    8.121u    
 968.24u    0.0096824 -963.45u    968.14u    0.0046751  9.3503u    46.751u    467.51n    9.3503u   
 0.0010353  0.010353  -0.0010298  0.0010352  0.0053299  10.66u     53.299u    532.99n    10.66u    
 0.0011023  0.011023  -0.0010962  0.0011022  0.0060245  12.049u    60.245u    602.45n    12.049u   
 0.0011694  0.011694  -0.0011625  0.0011693  0.0067586  13.517u    67.586u    675.86n    13.517u   
 0.0012731  0.012731  -0.001265   0.001273   0.0079877  15.975u    79.877u    798.77n    15.975u   
 0.0013768  0.013768  -0.0013674  0.0013767  0.0093092  18.618u    93.092u    930.92n    18.618u   
 0.0014805  0.014805  -0.0014697  0.0014804  0.010722   21.444u    107.22u    1.0722u    21.444u   
 0.0015842  0.015842  -0.0015719  0.0015841  0.012225   24.451u    122.25u    1.2225u    24.451u   
 0.0016879  0.016879  -0.001674   0.0016878  0.013818   27.636u    138.18u    1.3818u    27.636u   
 0.0017916  0.017916  -0.001776   0.0017915  0.015499   30.998u    154.99u    1.5499u    30.998u   
 0.0019539  0.019539  -0.0019355  0.0019538  0.018343   36.686u    183.43u    1.8343u    36.686u   
 0.0021163  0.021163  -0.0020948  0.0021162  0.021396   42.792u    213.96u    2.1396u    42.792u   
 0.0022786  0.022786  -0.0022538  0.0022785  0.024655   49.309u    246.55u    2.4655u    49.309u   
 0.0024409  0.024409  -0.0024127  0.0024408  0.028115   56.229u    281.15u    2.8115u    56.229u   
 0.0026033  0.026033  -0.0025714  0.0026032  0.031773   63.546u    317.73u    3.1773u    63.546u   
 0.0027656  0.027656  -0.0027298  0.0027655  0.035626   71.252u    356.26u    3.5626u    71.252u   
 0.0030249  0.030249  -0.0029825  0.0030248  0.042263   84.527u    422.63u    4.2263u    84.527u   
 0.0032842  0.032842  -0.0032347  0.0032841  0.04937    98.741u    493.7u     4.937u     98.741u   
 0.0035435  0.035435  -0.0034864  0.0035434  0.056934   113.87u    569.34u    5.6934u    113.87u   
 0.0038028  0.038027  -0.0037377  0.0038026  0.064942   129.88u    649.42u    6.4942u    129.88u   
 0.004062   0.04062   -0.0039885  0.0040619  0.073381   146.76u    733.81u    7.3381u    146.76u   
 0.0044618  0.044618  -0.0043743  0.0044617  0.087374   174.75u    873.74u    8.7374u    174.75u   
 0.0048615  0.048615  -0.0047591  0.0048614  0.10231    204.62u    0.0010231  10.231u    204.62u   
 0.0052613  0.052613  -0.005143   0.0052612  0.11814    236.29u    0.0011814  11.814u    236.29u   
 0.005661   0.05661   -0.005526   0.0056609  0.13484    269.69u    0.0013484  13.484u    269.69u   
 0.0060607  0.060607  -0.0059082  0.0060606  0.15237    304.74u    0.0015237  15.237u    304.74u   
 0.0066998  0.066998  -0.0065172  0.0066997  0.18236    364.73u    0.0018236  18.236u    364.73u   
 0.0073388  0.073388  -0.0071244  0.0073387  0.2142     428.41u    0.002142   21.42u     428.41u   
 0.0079779  0.079779  -0.0077299  0.0079778  0.24777    495.54u    0.0024777  24.777u    495.54u   
 0.0086169  0.086169  -0.0083338  0.0086168  0.28294    565.89u    0.0028294  28.294u    565.89u   
 0.0096102  0.096102  -0.0092689  0.0096101  0.34113    682.25u    0.0034113  34.113u    682.25u   
 0.010604   0.10603   -0.010201   0.010603   0.40247    804.94u    0.0040247  40.247u    804.94u   
 0.011597   0.11597   -0.01113    0.011597   0.46667    933.34u    0.0046667  46.667u    933.34u   
 0.013095   0.13095   -0.012526   0.013095   0.56908    0.0011382  0.0056908  56.908u    0.0011382 
 0.014594   0.14594   -0.013917   0.014593   0.67628    0.0013526  0.0067628  67.628u    0.0013526 
 0.016092   0.16092   -0.015304   0.016092   0.78758    0.0015752  0.0078758  78.758u    0.0015752 
 0.01836    0.1836    -0.017396   0.01836    0.96356    0.0019271  0.0096356  96.356u    0.0019271 
 0.020627   0.20627   -0.019482   0.020627   1.1456     0.0022911  0.011456   114.56u    0.0022911 
 0.022895   0.22895   -0.021562   0.022895   1.3324     0.0026648  0.013324   133.24u    0.0026648 
 0.025163   0.25163   -0.02364    0.025163   1.5231     0.0030462  0.015231   152.31u    0.0030462 
 0.028905   0.28905   -0.027059   0.028905   1.8452     0.0036904  0.018452   184.52u    0.0036904 
 0.032647   0.32647   -0.030474   0.032647   2.1725     0.0043451  0.021725   217.25u    0.0043451 
 0.036389   0.36389   -0.033884   0.036388   2.5036     0.0050072  0.025036   250.36u    0.0050072 
 0.04275    0.4275    -0.039676   0.04275    3.0728     0.0061457  0.030728   307.28u    0.0061457 
 0.049111   0.49111   -0.045464   0.049111   3.6458     0.0072915  0.036458   364.58u    0.0072915 
 0.059289   0.59289   -0.054721   0.059288   4.567      0.0091341  0.04567    456.7u     0.0091341 
 0.069467   0.69466   -0.063975   0.069466   5.4903     0.010981   0.054903   549.03u    0.010981  
 0.084733   0.84733   -0.077855   0.084733   6.8771     0.013755   0.068771   687.71u    0.013755  
 0.1        1.        -0.091734   0.1        8.2646     0.01653    0.082646   826.46u    0.01653   
 0.10141    1.        -0.091623   0.1        8.3754     0.016751   0.083754   837.54u    0.016751  
 0.1025     1.        -0.091547   0.1        8.4524     0.016905   0.084524   845.24u    0.016905  
 0.1036     1.        -0.091478   0.1        8.521      0.017042   0.08521    852.1u     0.017042  
 0.10469    1.        -0.091417   0.1        8.5823     0.017165   0.085823   858.23u    0.017165  
 0.10579    1.        -0.091362   0.1        8.637      0.017274   0.08637    863.7u     0.017274  
 0.10689    1.        -0.091313   0.1        8.6858     0.017372   0.086858   868.58u    0.017372  
 0.10798    1.        -0.09127    0.1        8.7293     0.017459   0.087293   872.93u    0.017459  
 0.10908    1.        -0.091231   0.1        8.7682     0.017536   0.087682   876.82u    0.017536  
 0.11017    1.        -0.091196   0.1        8.8029     0.017606   0.088029   880.29u    0.017606  
 0.11127    1.        -0.091165   0.1        8.8339     0.017668   0.088339   883.39u    0.017668  
 0.11236    1.        -0.091137   0.1        8.8615     0.017723   0.088615   886.15u    0.017723  
 0.11346    1.        -0.091113   0.1        8.8862     0.017772   0.088862   888.62u    0.017772  
 0.11455    1.        -0.091091   0.1        8.9082     0.017816   0.089082   890.82u    0.017816  
 0.11565    1.        -0.091071   0.1        8.9278     0.017856   0.089278   892.78u    0.017856  
 0.11674    1.        -0.091054   0.1        8.9453     0.017891   0.089453   894.53u    0.017891  
 0.11784    1.        -0.091038   0.1        8.961      0.017922   0.08961    896.1u     0.017922  
 0.11894    1.        -0.091024   0.1        8.9749     0.01795    0.089749   897.49u    0.01795   
 0.12003    1.        -0.091011   0.1        8.9874     0.017975   0.089874   898.74u    0.017975  
 0.12113    1.        -0.091      0.1        8.9985     0.017997   0.089985   899.85u    0.017997  
 0.12222    1.        -0.09099    0.1        9.0084     0.018017   0.090084   900.84u    0.018017  
 0.12332    1.        -0.090982   0.1        9.0173     0.018035   0.090173   901.73u    0.018035  
 0.12441    1.        -0.090974   0.1        9.0252     0.018051   0.090252   902.52u    0.018051  
 0.12551    1.        -0.090967   0.1        9.0323     0.018065   0.090323   903.23u    0.018065  
 0.1266     1.        -0.09096    0.1        9.0386     0.018077   0.090386   903.86u    0.018077  
 0.1277     1.        -0.090955   0.1        9.0442     0.018088   0.090442   904.42u    0.018088  
 0.12879    1.        -0.09095    0.1        9.0492     0.018098   0.090492   904.92u    0.018098  
 0.12989    1.        -0.090945   0.1        9.0537     0.018107   0.090537   905.37u    0.018107  
 0.13099    1.        -0.090941   0.1        9.0577     0.018115   0.090577   905.77u    0.018115  
 0.13208    1.        -0.090938   0.1        9.0612     0.018123   0.090612   906.12u    0.018123  
 0.13318    1.        -0.090934   0.1        9.0644     0.018129   0.090644   906.44u    0.018129  
 0.13427    1.        -0.090932   0.1        9.0672     0.018135   0.090672   906.72u    0.018135  
 0.13537    1.        -0.090929   0.1        9.0698     0.01814    0.090698   906.98u    0.01814   
 0.13646    1.        -0.090927   0.1        9.072      0.018144   0.09072    907.2u     0.018144  
 0.13756    1.        -0.090925   0.1        9.0741     0.018148   0.090741   907.41u    0.018148  
 0.13865    1.        -0.090923   0.1        9.0759     0.018152   0.090759   907.59u    0.018152  
 0.13975    1.        -0.090921   0.1        9.0775     0.018155   0.090775   907.75u    0.018155  
 0.14085    1.        -0.09092    0.1        9.0789     0.018158   0.090789   907.89u    0.018158  
 0.14194    1.        -0.090919   0.1        9.0802     0.01816    0.090802   908.02u    0.01816   
 0.14304    1.        -0.090918   0.1        9.0813     0.018163   0.090813   908.13u    0.018163  
 0.14413    1.        -0.090917   0.1        9.0823     0.018165   0.090823   908.23u    0.018165  
 0.14523    1.        -0.090916   0.1        9.0833     0.018167   0.090833   908.33u    0.018167  
 0.14632    1.        -0.090915   0.1        9.0841     0.018168   0.090841   908.41u    0.018168  
 0.14742    1.        -0.090914   0.1        9.0848     0.01817    0.090848   908.48u    0.01817   
 0.14851    1.        -0.090913   0.1        9.0854     0.018171   0.090854   908.54u    0.018171  
 0.14961    1.        -0.090913   0.1        9.086      0.018172   0.09086    908.6u     0.018172  
 0.1507     1.        -0.090912   0.1        9.0865     0.018173   0.090865   908.65u    0.018173  
 0.1518     1.        -0.090912   0.1        9.087      0.018174   0.09087    908.7u     0.018174  
 0.1529     1.        -0.090911   0.1        9.0874     0.018175   0.090874   908.74u    0.018175  
 0.15399    1.        -0.090911   0.1        9.0878     0.018176   0.090878   908.78u    0.018176  
 0.15509    1.        -0.090911   0.1        9.0881     0.018176   0.090881   908.81u    0.018176  
 0.15618    1.        -0.090911   0.1        9.0884     0.018177   0.090884   908.84u    0.018177  
 0.15728    1.        -0.09091    0.1        9.0886     0.018177   0.090886   908.86u    0.018177  
 0.15837    1.        -0.09091    0.1        9.0889     0.018178   0.090889   908.89u    0.018178  
 0.15947    1.        -0.09091    0.1        9.0891     0.018178   0.090891   908.91u    0.018178  
