* this file is part of gnucap-adms 
* Copyright (C) 2013 Felix Salfelder 
* License GPLv3 (or later) 
.model mydruck drucksensor ( C_waerm=5e-7 ub0=NA( 3.) d2=NA( 300.u) d1=NA( 50.u) a=NA( 0.77) k=NA( 1.8) lquerLuft=NA( 66.5u) lambda0=NA( 0.0256) Area=NA( 4.u) epsilon=NA( 0.03) sigma=NA( 56.7n) G_b=NA( 800.n) Rnull=6.2e3 beta=0.0054)
DR2 ( nout pout ninp ndd 0 )  mydruck 
* Xd nout npout np ndd nss mydruck 
Vdd ( ndd 0 )  DC  5.
vin ( ninp 0 ) pulse iv= 0. pv= 10. delay=NA( 0.) rise= 1. fall=NA( 0.) width=NA( Inf) period=NA( Inf)
#Time       v(ndd)     v(ninp)    v(nout)    v(pout)    T(DR2)    
 0.         5.         0.         2.5        3.5362     562.33    
 0.01       5.         0.1        2.5        2.8795     366.44    
 0.02       5.         0.2        2.5        2.5        294.79    
 0.03       5.         0.3        2.5        2.5391     306.03    
 0.031702   5.         0.31702    2.5        2.5191     303.01    
 0.033404   5.         0.33404    2.5        2.5154     302.44    
 0.03433    5.         0.3433     2.5        2.5147     302.35    
 0.035257   5.         0.35257    2.5        2.5143     302.28    
 0.036184   5.         0.36184    2.5        2.5139     302.23    
 0.038274   5.         0.38274    2.5        2.5133     302.12    
 0.040365   5.         0.40365    2.5        2.5127     302.04    
 0.044979   5.         0.44979    2.5        2.5116     301.88    
 0.049592   5.         0.49592    2.5        2.5107     301.75    
 0.060517   5.         0.60517    2.5        2.5092     301.52    
 0.071441   5.         0.71441    2.5        2.5081     301.36    
 0.082365   5.         0.82365    2.5        2.5073     301.24    
 0.093289   5.         0.93289    2.5        2.5067     301.15    
 0.1139     5.         1.139      2.5        2.5059     301.02    
 0.1345     5.         1.345      2.5        2.5053     300.93    
 0.15511    5.         1.5511     2.5        2.5048     300.87    
 0.18761    5.         1.8761     2.5        2.5043     300.79    
 0.2201     5.         2.201      2.5        2.5039     300.73    
 0.26885    5.         2.6885     2.5        2.5035     300.68    
 0.31759    5.         3.1759     2.5        2.5033     300.63    
 0.36633    5.         3.6633     2.5        2.5031     300.6     
 0.45686    5.         4.5686     2.5        2.5028     300.56    
 0.54738    5.         5.4738     2.5        2.5026     300.53    
 0.66054    5.         6.6054     2.5        2.5024     300.51    
 0.77369    5.         7.7369     2.5        2.5023     300.49    
 0.88685    5.         8.8685     2.5        2.5022     300.48    
 1.         5.         10.        2.5        2.5022     300.47    
#           v(ndd)     v(ninp)    v(nout)    v(pout)    T(DR2)    
 1.n        5.         1.n        2.5        3.5362     562.33    
 2.n        5.         2.n        2.5        3.5362     562.33    
 4.n        5.         4.n        2.5        3.5362     562.33    
 8.n        5.         8.n        2.5        3.5362     562.33    
 16.n       5.         16.n       2.5        3.5362     562.33    
 32.n       5.         32.n       2.5        3.5362     562.33    
 64.n       5.         64.n       2.5        3.5362     562.33    
 128.n      5.         128.n      2.5        3.5362     562.32    
 256.n      5.         256.n      2.5        3.5362     562.31    
 512.n      5.         512.n      2.5        3.5361     562.3     
 1.024u     5.         1.024u     2.5        3.536      562.26    
 2.048u     5.         2.048u     2.5        3.5359     562.19    
 4.096u     5.         4.096u     2.5        3.5355     562.04    
 8.192u     5.         8.192u     2.5        3.5349     561.75    
 16.384u    5.         16.384u    2.5        3.5335     561.17    
 32.768u    5.         32.768u    2.5        3.5308     560.02    
 65.536u    5.         65.536u    2.5        3.5255     557.72    
 131.07u    5.         131.07u    2.5        3.5148     553.2     
 262.14u    5.         262.14u    2.5        3.4935     544.4     
 524.29u    5.         524.29u    2.5        3.4517     527.81    
 0.0010486  5.         0.0010486  2.5        3.3724     498.68    
 0.0020972  5.         0.0020972  2.5        3.2361     454.7     
 0.0041943  5.         0.0041943  2.5        3.0465     403.76    
 0.0083886  5.         0.0083886  2.5        2.8526     360.96    
 0.016777   5.         0.016777   2.5        2.7043     333.11    
 0.033554   5.         0.033554   2.5        2.6113     317.41    
 0.067109   5.         0.067109   2.5        2.5592     309.14    
 0.13422    5.         0.13422    2.5        2.5316     304.9     
 0.26844    5.         0.26844    2.5        2.5173     302.74    
 0.53687    5.         0.53687    2.5        2.51       301.63    
 1.0737     5.         1.0737     2.5        2.5061     301.05    
 2.1475     5.         2.1475     2.5        2.504      300.74    
 4.295      5.         4.295      2.5        2.5029     300.57    
 8.5899     5.         8.5899     2.5        2.5022     300.48    
 17.18      5.         17.18      2.5        2.5019     300.43    
 34.36      5.         34.36      2.5        2.5018     300.41    
 68.719     5.         68.719     2.5        2.5017     300.4     
 137.44     5.         137.44     2.5        2.5016     300.39    
 274.88     5.         274.88     2.5        2.5016     300.39    
 549.76     5.         549.76     2.5        2.5016     300.39    
 1.0995K    5.         1.0995K    2.5        2.5016     300.39    
 2.199K     5.         2.199K     2.5        2.5016     300.38    
 4.398K     5.         4.398K     2.5        2.5016     300.38    
 8.7961K    5.         8.7961K    2.5        2.5016     300.38    
