#Time       v(v_pin)   v(output)  gmin(0)    damp(0)    control(0) v(ia1+)    v(ia1-)    T(Xsensor1.DR2) v(Xsensor1.DR2.t1)
 0.         100.E-6    2.0328     1.E-12     1.         1.         1.1953     1.1953     378.9      105.75    
 800.E-6    896.E-6    2.0292     1.E-12     1.         9.         1.195      1.195      378.73     105.58    
 0.0016     0.001692   2.0237     1.E-12     1.         6.         1.1945     1.1945     378.47     105.32    
 0.0024     0.002488   2.0145     1.E-12     1.         6.         1.1937     1.1937     378.04     104.89    
 0.0032     0.003284   2.0018     1.E-12     1.         6.         1.1926     1.1926     377.45     104.3     
 0.004      0.00408    1.9857     1.E-12     1.         6.         1.1911     1.1911     376.69     103.54    
 0.00704    0.0071048  1.8947     1.E-12     1.         6.         1.1832     1.1832     372.5      99.351    
 0.01008    0.01013    1.7616     1.E-12     1.         6.         1.1715     1.1715     366.5      93.355    
 0.01312    0.013154   1.5952     1.E-12     1.         6.         1.1569     1.1569     359.24     86.088    
 0.014978   0.015003   1.4814     1.E-12     1.         6.         1.1469     1.1469     354.4      81.253    
 0.016305   0.016323   1.3964     1.E-12     1.         6.         1.1394     1.1395     350.86     77.713    
 0.017632   0.017644   1.3095     1.E-12     1.         6.         1.1318     1.1318     347.3      74.154    
 0.018959   0.018964   1.2217     1.E-12     1.         6.         1.1241     1.1241     343.77     70.621    
 0.02       0.02       1.1528     1.E-12     1.         7.         1.1181     1.1181     341.04     67.889    
 0.0205     0.02       1.1208     1.E-12     1.         16.        1.1153     1.1153     339.78     66.633    
 0.021      0.02       1.0892     1.E-12     1.         6.         1.1125     1.1125     338.55     65.4      
 0.022204   0.02       1.0169     1.E-12     1.         6.         1.1062     1.1062     335.76     62.606    
 0.023408   0.02       0.94975    1.E-12     1.         6.         1.1003     1.1003     333.19     60.044    
 0.026387   0.02       0.80327    1.E-12     1.         6.         1.0874     1.0874     327.72     54.569    
 0.029365   0.02       0.68218    1.E-12     1.         6.         1.0768     1.0768     323.3      50.153    
 0.032344   0.02       0.58248    1.E-12     1.         6.         1.0681     1.0681     319.74     46.59     
 0.035322   0.02       0.50071    1.E-12     1.         6.         1.0609     1.0609     316.87     43.716    
 0.038301   0.02       0.43381    1.E-12     1.         6.         1.055      1.055      314.55     41.396    
 0.041279   0.02       0.37924    1.E-12     1.         6.         1.0502     1.0503     312.67     39.524    
 0.044258   0.02       0.33478    1.E-12     1.         6.         1.0464     1.0464     311.16     38.012    
 0.047236   0.02       0.29864    1.E-12     1.         6.         1.0432     1.0432     309.94     36.792    
 0.050215   0.02       0.26928    1.E-12     1.         6.         1.0406     1.0406     308.96     35.806    
 0.053193   0.02       0.24547    1.E-12     1.         6.         1.0385     1.0385     308.16     35.011    
 0.056172   0.02       0.22616    1.E-12     1.         6.         1.0368     1.0368     307.52     34.368    
 0.05915    0.02       0.21053    1.E-12     1.         6.         1.0355     1.0355     307.       33.849    
 0.062129   0.02       0.19787    1.E-12     1.         6.         1.0343     1.0343     306.58     33.431    
 0.065107   0.02       0.18764    1.E-12     1.         6.         1.0334     1.0334     306.24     33.092    
 0.068086   0.02       0.17934    1.E-12     1.         6.         1.0327     1.0327     305.97     32.819    
 0.071064   0.02       0.17265    1.E-12     1.         6.         1.0321     1.0321     305.75     32.598    
 0.075532   0.02       0.16489    1.E-12     1.         6.         1.0315     1.0315     305.49     32.343    
 0.08       0.02       0.15927    1.E-12     1.         1.         1.031      1.031      305.31     32.159    
vout= 0.4026788
*..******.....*****
.*.*......**....*..
..**......00***.0..
****.*....*****.*..
*...*0.*..00000.0..
*..*0*.*..0*0*0*0..
*.....*0..0000000..
*...**0*..00000*0..
*.......*.0000*00*.
.........*000*0000.
.*0*000000***000*0*
.*0*0*0000***000000
..**000000*****0000
..**0*000*00**0000*
*.**0000*000*0**000
*....*0*000000***00
**0*000000*0000**00
*.......*00000000*0
*.........*00*0000*
Gnucap   System status
iterations: op=0, dc=467, tran=172, fourier=0, total=686
transient timesteps: accepted=36, rejected=1, total=37
nodes: user=10, subckt=5, model=3, total=18
dctran density=67.9%, ac density=67.9%
