#Time       v(v_pin)   v(output)  gmin(0)    damp(0)    control(0) v(ia1+)    v(ia1-)    T(Xsensor1.DR2) v(Xsensor1.DR2.t1)
 0.         100.u      2.0328     1.p        1.         1.         1.1953     1.1953     378.9      105.75    
 50.n       100.05u    2.0328     1.p        1.         9.         1.1953     1.1953     378.9      105.75    
 100.n      100.1u     2.0328     1.p        1.         6.         1.1953     1.1953     378.9      105.75    
 150.n      100.15u    2.0328     1.p        1.         6.         1.1953     1.1953     378.9      105.75    
 200.n      100.2u     2.0328     1.p        1.         6.         1.1953     1.1953     378.9      105.75    
 250.n      100.25u    2.0328     1.p        1.         6.         1.1953     1.1953     378.9      105.75    
 5.u        104.98u    2.0328     1.p        1.         1.         1.1953     1.1953     378.9      105.75    
 10.u       109.95u    2.0328     1.p        1.         1.         1.1953     1.1953     378.9      105.75    
 15.u       114.93u    2.0328     1.p        1.         1.         1.1953     1.1953     378.9      105.75    
 20.u       119.9u     2.0328     1.p        1.         1.         1.1953     1.1953     378.9      105.75    
 25.u       124.88u    2.0328     1.p        1.         1.         1.1953     1.1953     378.9      105.75    
 30.u       129.85u    2.0328     1.p        1.         1.         1.1953     1.1953     378.9      105.75    
 35.u       134.83u    2.0328     1.p        1.         1.         1.1953     1.1953     378.9      105.75    
 40.u       139.8u     2.0328     1.p        1.         1.         1.1953     1.1953     378.9      105.75    
 45.u       144.78u    2.0328     1.p        1.         1.         1.1953     1.1953     378.9      105.75    
 50.u       149.75u    2.0328     1.p        1.         1.         1.1953     1.1953     378.9      105.75    
 55.u       154.73u    2.0328     1.p        1.         1.         1.1953     1.1953     378.9      105.75    
 60.u       159.7u     2.0328     1.p        1.         1.         1.1953     1.1953     378.9      105.75    
 65.u       164.68u    2.0328     1.p        1.         1.         1.1953     1.1953     378.9      105.75    
 70.u       169.65u    2.0328     1.p        1.         1.         1.1953     1.1953     378.9      105.75    
 75.u       174.63u    2.0328     1.p        1.         1.         1.1953     1.1953     378.9      105.75    
 80.u       179.6u     2.0328     1.p        1.         1.         1.1953     1.1953     378.9      105.75    
 85.u       184.58u    2.0328     1.p        1.         1.         1.1953     1.1953     378.9      105.75    
 90.u       189.55u    2.0328     1.p        1.         1.         1.1953     1.1953     378.9      105.75    
 95.u       194.53u    2.0328     1.p        1.         1.         1.1953     1.1953     378.9      105.75    
 100.u      199.5u     2.0328     1.p        1.         1.         1.1953     1.1953     378.9      105.75    
 105.u      204.48u    2.0328     1.p        1.         1.         1.1953     1.1953     378.9      105.75    
 110.u      209.45u    2.0328     1.p        1.         1.         1.1953     1.1953     378.9      105.75    
 115.u      214.43u    2.0328     1.p        1.         1.         1.1953     1.1953     378.9      105.75    
 120.u      219.4u     2.0328     1.p        1.         1.         1.1953     1.1953     378.9      105.75    
 125.u      224.38u    2.0328     1.p        1.         1.         1.1953     1.1953     378.9      105.75    
 130.u      229.35u    2.0328     1.p        1.         1.         1.1953     1.1953     378.9      105.75    
 135.u      234.33u    2.0328     1.p        1.         1.         1.1953     1.1953     378.9      105.75    
 140.u      239.3u     2.0328     1.p        1.         1.         1.1953     1.1953     378.9      105.75    
 145.u      244.28u    2.0328     1.p        1.         1.         1.1953     1.1953     378.9      105.75    
 150.u      249.25u    2.0328     1.p        1.         1.         1.1953     1.1953     378.9      105.75    
 155.u      254.23u    2.0328     1.p        1.         1.         1.1953     1.1953     378.9      105.75    
 160.u      259.2u     2.0328     1.p        1.         1.         1.1953     1.1953     378.9      105.75    
 165.u      264.17u    2.0328     1.p        1.         1.         1.1953     1.1953     378.9      105.75    
 170.u      269.15u    2.0328     1.p        1.         1.         1.1953     1.1953     378.9      105.75    
 175.u      274.12u    2.0328     1.p        1.         1.         1.1953     1.1953     378.9      105.75    
 180.u      279.1u     2.0328     1.p        1.         1.         1.1953     1.1953     378.9      105.75    
 185.u      284.07u    2.0327     1.p        1.         1.         1.1953     1.1953     378.9      105.75    
 190.u      289.05u    2.0327     1.p        1.         1.         1.1953     1.1953     378.9      105.75    
 195.u      294.02u    2.0327     1.p        1.         1.         1.1953     1.1953     378.9      105.75    
 200.u      299.u      2.0327     1.p        1.         1.         1.1953     1.1953     378.9      105.75    
 205.u      303.97u    2.0327     1.p        1.         1.         1.1953     1.1953     378.9      105.75    
 210.u      308.95u    2.0327     1.p        1.         1.         1.1953     1.1953     378.9      105.75    
 215.u      313.92u    2.0327     1.p        1.         1.         1.1953     1.1953     378.9      105.75    
 220.u      318.9u     2.0327     1.p        1.         1.         1.1953     1.1953     378.9      105.75    
 225.u      323.87u    2.0327     1.p        1.         1.         1.1953     1.1953     378.9      105.75    
 230.u      328.85u    2.0327     1.p        1.         1.         1.1953     1.1953     378.9      105.75    
 235.u      333.83u    2.0327     1.p        1.         1.         1.1953     1.1953     378.9      105.75    
 240.u      338.8u     2.0327     1.p        1.         1.         1.1953     1.1953     378.89     105.74    
 245.u      343.78u    2.0327     1.p        1.         1.         1.1953     1.1953     378.89     105.74    
 250.u      348.75u    2.0327     1.p        1.         1.         1.1953     1.1953     378.89     105.74    
 255.u      353.73u    2.0327     1.p        1.         1.         1.1953     1.1953     378.89     105.74    
 260.u      358.7u     2.0327     1.p        1.         1.         1.1953     1.1953     378.89     105.74    
 265.u      363.68u    2.0327     1.p        1.         1.         1.1953     1.1953     378.89     105.74    
 270.u      368.65u    2.0327     1.p        1.         1.         1.1953     1.1953     378.89     105.74    
 275.u      373.62u    2.0327     1.p        1.         1.         1.1953     1.1953     378.89     105.74    
 280.u      378.6u     2.0327     1.p        1.         1.         1.1953     1.1953     378.89     105.74    
 285.u      383.58u    2.0327     1.p        1.         1.         1.1953     1.1953     378.89     105.74    
 290.u      388.55u    2.0326     1.p        1.         1.         1.1953     1.1953     378.89     105.74    
 295.u      393.52u    2.0326     1.p        1.         1.         1.1953     1.1953     378.89     105.74    
 300.u      398.5u     2.0326     1.p        1.         1.         1.1953     1.1953     378.89     105.74    
 305.u      403.47u    2.0326     1.p        1.         1.         1.1953     1.1953     378.89     105.74    
 310.u      408.45u    2.0326     1.p        1.         1.         1.1953     1.1953     378.89     105.74    
 315.u      413.43u    2.0326     1.p        1.         1.         1.1953     1.1953     378.89     105.74    
 320.u      418.4u     2.0326     1.p        1.         1.         1.1953     1.1953     378.89     105.74    
 325.u      423.38u    2.0326     1.p        1.         1.         1.1953     1.1953     378.89     105.74    
 330.u      428.35u    2.0326     1.p        1.         1.         1.1953     1.1953     378.89     105.74    
 335.u      433.32u    2.0326     1.p        1.         1.         1.1953     1.1953     378.89     105.74    
 340.u      438.3u     2.0326     1.p        1.         1.         1.1953     1.1953     378.89     105.74    
 345.u      443.28u    2.0325     1.p        1.         1.         1.1953     1.1953     378.89     105.74    
 350.u      448.25u    2.0325     1.p        1.         1.         1.1953     1.1953     378.89     105.74    
 355.u      453.23u    2.0325     1.p        1.         1.         1.1953     1.1953     378.89     105.74    
 360.u      458.2u     2.0325     1.p        1.         1.         1.1953     1.1953     378.89     105.74    
 365.u      463.18u    2.0325     1.p        1.         1.         1.1953     1.1953     378.89     105.74    
 370.u      468.15u    2.0325     1.p        1.         1.         1.1953     1.1953     378.89     105.74    
 375.u      473.13u    2.0325     1.p        1.         1.         1.1953     1.1953     378.89     105.74    
 380.u      478.1u     2.0325     1.p        1.         1.         1.1953     1.1953     378.88     105.73    
 385.u      483.07u    2.0325     1.p        1.         1.         1.1953     1.1953     378.88     105.73    
 390.u      488.05u    2.0325     1.p        1.         1.         1.1952     1.1952     378.88     105.73    
 395.u      493.02u    2.0325     1.p        1.         1.         1.1952     1.1952     378.88     105.73    
 400.u      498.u      2.0324     1.p        1.         1.         1.1952     1.1952     378.88     105.73    
 405.u      502.98u    2.0324     1.p        1.         1.         1.1952     1.1952     378.88     105.73    
 410.u      507.95u    2.0324     1.p        1.         1.         1.1952     1.1952     378.88     105.73    
 415.u      512.92u    2.0324     1.p        1.         1.         1.1952     1.1952     378.88     105.73    
 420.u      517.9u     2.0324     1.p        1.         1.         1.1952     1.1952     378.88     105.73    
 425.u      522.87u    2.0324     1.p        1.         1.         1.1952     1.1952     378.88     105.73    
 430.u      527.85u    2.0324     1.p        1.         1.         1.1952     1.1952     378.88     105.73    
 435.u      532.83u    2.0324     1.p        1.         1.         1.1952     1.1952     378.88     105.73    
 440.u      537.8u     2.0324     1.p        1.         1.         1.1952     1.1952     378.88     105.73    
 445.u      542.78u    2.0324     1.p        1.         1.         1.1952     1.1952     378.88     105.73    
 450.u      547.75u    2.0324     1.p        1.         1.         1.1952     1.1952     378.88     105.73    
 455.u      552.73u    2.0324     1.p        1.         1.         1.1952     1.1952     378.88     105.73    
 460.u      557.7u     2.0324     1.p        1.         1.         1.1952     1.1952     378.88     105.73    
 465.u      562.68u    2.0323     1.p        1.         1.         1.1952     1.1952     378.88     105.73    
 470.u      567.65u    2.0323     1.p        1.         1.         1.1952     1.1952     378.88     105.73    
 475.u      572.63u    2.0323     1.p        1.         1.         1.1952     1.1952     378.88     105.73    
 480.u      577.6u     2.0323     1.p        1.         1.         1.1952     1.1952     378.88     105.73    
 485.u      582.58u    2.0323     1.p        1.         1.         1.1952     1.1952     378.88     105.73    
 490.u      587.55u    2.0323     1.p        1.         1.         1.1952     1.1952     378.88     105.73    
 495.u      592.53u    2.0323     1.p        1.         1.         1.1952     1.1952     378.87     105.72    
 500.u      597.5u     2.0323     1.p        1.         1.         1.1952     1.1952     378.87     105.72    
 505.u      602.47u    2.0322     1.p        1.         1.         1.1952     1.1952     378.87     105.72    
 510.u      607.45u    2.0322     1.p        1.         1.         1.1952     1.1952     378.87     105.72    
 515.u      612.43u    2.0322     1.p        1.         1.         1.1952     1.1952     378.87     105.72    
 520.u      617.4u     2.0322     1.p        1.         1.         1.1952     1.1952     378.87     105.72    
 525.u      622.38u    2.0322     1.p        1.         1.         1.1952     1.1952     378.87     105.72    
 530.u      627.35u    2.0322     1.p        1.         1.         1.1952     1.1952     378.87     105.72    
 535.u      632.33u    2.0322     1.p        1.         1.         1.1952     1.1952     378.87     105.72    
 540.u      637.3u     2.0322     1.p        1.         1.         1.1952     1.1952     378.87     105.72    
 545.u      642.28u    2.0322     1.p        1.         1.         1.1952     1.1952     378.87     105.72    
 550.u      647.25u    2.0322     1.p        1.         1.         1.1952     1.1952     378.87     105.72    
 555.u      652.23u    2.0322     1.p        1.         1.         1.1952     1.1952     378.87     105.72    
 560.u      657.2u     2.0322     1.p        1.         1.         1.1952     1.1952     378.87     105.72    
 565.u      662.18u    2.0322     1.p        1.         1.         1.1952     1.1952     378.87     105.72    
 570.u      667.15u    2.0322     1.p        1.         1.         1.1952     1.1952     378.87     105.72    
 575.u      672.13u    2.0322     1.p        1.         1.         1.1952     1.1952     378.87     105.72    
 580.u      677.1u     2.0321     1.p        1.         1.         1.1952     1.1952     378.87     105.72    
 585.u      682.08u    2.0321     1.p        1.         1.         1.1952     1.1952     378.87     105.72    
 590.u      687.05u    2.0321     1.p        1.         1.         1.1952     1.1952     378.87     105.72    
 595.u      692.03u    2.0321     1.p        1.         1.         1.1952     1.1952     378.87     105.72    
 600.u      697.u      2.0321     1.p        1.         1.         1.1952     1.1952     378.86     105.71    
 605.u      701.98u    2.0321     1.p        1.         1.         1.1952     1.1952     378.86     105.71    
 610.u      706.95u    2.0321     1.p        1.         1.         1.1952     1.1952     378.86     105.71    
 615.u      711.93u    2.0321     1.p        1.         1.         1.1952     1.1952     378.86     105.71    
 620.u      716.9u     2.0321     1.p        1.         1.         1.1952     1.1952     378.86     105.71    
 625.u      721.88u    2.0321     1.p        1.         1.         1.1952     1.1952     378.86     105.71    
 630.u      726.85u    2.032      1.p        1.         1.         1.1952     1.1952     378.86     105.71    
 635.u      731.83u    2.032      1.p        1.         1.         1.1952     1.1952     378.86     105.71    
 640.u      736.8u     2.032      1.p        1.         1.         1.1952     1.1952     378.86     105.71    
 645.u      741.78u    2.032      1.p        1.         1.         1.1952     1.1952     378.86     105.71    
 650.u      746.75u    2.032      1.p        1.         1.         1.1952     1.1952     378.86     105.71    
 655.u      751.73u    2.032      1.p        1.         1.         1.1952     1.1952     378.86     105.71    
 660.u      756.7u     2.032      1.p        1.         1.         1.1952     1.1952     378.86     105.71    
 665.u      761.68u    2.0319     1.p        1.         1.         1.1952     1.1952     378.86     105.71    
 670.u      766.65u    2.0319     1.p        1.         1.         1.1952     1.1952     378.86     105.71    
 675.u      771.63u    2.0319     1.p        1.         1.         1.1952     1.1952     378.86     105.71    
 680.u      776.6u     2.0319     1.p        1.         1.         1.1952     1.1952     378.86     105.71    
 685.u      781.58u    2.0319     1.p        1.         1.         1.1952     1.1952     378.86     105.71    
 690.u      786.55u    2.0318     1.p        1.         1.         1.1952     1.1952     378.85     105.7     
 695.u      791.53u    2.0318     1.p        1.         1.         1.1952     1.1952     378.85     105.7     
 700.u      796.5u     2.0318     1.p        1.         1.         1.1952     1.1952     378.85     105.7     
 705.u      801.48u    2.0318     1.p        1.         1.         1.1952     1.1952     378.85     105.7     
 710.u      806.45u    2.0318     1.p        1.         1.         1.1952     1.1952     378.85     105.7     
 715.u      811.43u    2.0317     1.p        1.         1.         1.1952     1.1952     378.85     105.7     
 720.u      816.4u     2.0317     1.p        1.         1.         1.1952     1.1952     378.85     105.7     
 725.u      821.38u    2.0317     1.p        1.         1.         1.1952     1.1952     378.85     105.7     
 730.u      826.35u    2.0317     1.p        1.         1.         1.1952     1.1952     378.85     105.7     
 735.u      831.33u    2.0317     1.p        1.         1.         1.1952     1.1952     378.85     105.7     
 740.u      836.3u     2.0316     1.p        1.         1.         1.1952     1.1952     378.85     105.7     
 745.u      841.28u    2.0317     1.p        1.         1.         1.1952     1.1952     378.85     105.7     
 750.u      846.25u    2.0316     1.p        1.         1.         1.1952     1.1952     378.84     105.69    
 755.u      851.22u    2.0316     1.p        1.         1.         1.1952     1.1952     378.84     105.69    
 760.u      856.2u     2.0316     1.p        1.         1.         1.1952     1.1952     378.84     105.69    
 765.u      861.18u    2.0316     1.p        1.         1.         1.1952     1.1952     378.84     105.69    
 770.u      866.15u    2.0316     1.p        1.         1.         1.1952     1.1952     378.84     105.69    
 775.u      871.13u    2.0316     1.p        1.         1.         1.1952     1.1952     378.84     105.69    
 780.u      876.1u     2.0316     1.p        1.         1.         1.1952     1.1952     378.84     105.69    
 785.u      881.08u    2.0316     1.p        1.         1.         1.1952     1.1952     378.84     105.69    
 790.u      886.05u    2.0316     1.p        1.         1.         1.1952     1.1952     378.84     105.69    
 795.u      891.03u    2.0316     1.p        1.         1.         1.1952     1.1952     378.84     105.69    
 800.u      896.u      2.0315     1.p        1.         1.         1.1952     1.1952     378.84     105.69    
 805.u      900.98u    2.0315     1.p        1.         1.         1.1952     1.1952     378.84     105.69    
 810.u      905.95u    2.0315     1.p        1.         1.         1.1952     1.1952     378.84     105.69    
 815.u      910.93u    2.0315     1.p        1.         1.         1.1952     1.1952     378.84     105.69    
 820.u      915.9u     2.0315     1.p        1.         1.         1.1952     1.1952     378.84     105.69    
 825.u      920.88u    2.0314     1.p        1.         1.         1.1952     1.1952     378.83     105.68    
 830.u      925.85u    2.0314     1.p        1.         1.         1.1952     1.1952     378.83     105.68    
 835.u      930.83u    2.0314     1.p        1.         1.         1.1952     1.1952     378.83     105.68    
 840.u      935.8u     2.0314     1.p        1.         1.         1.1952     1.1952     378.83     105.68    
 845.u      940.77u    2.0314     1.p        1.         1.         1.1952     1.1952     378.83     105.68    
 850.u      945.75u    2.0314     1.p        1.         1.         1.1952     1.1952     378.83     105.68    
 855.u      950.73u    2.0313     1.p        1.         1.         1.1951     1.1952     378.83     105.68    
 860.u      955.7u     2.0313     1.p        1.         1.         1.1951     1.1951     378.83     105.68    
 865.u      960.68u    2.0313     1.p        1.         1.         1.1951     1.1951     378.83     105.68    
